 (1756943972.145721)  can0  7E0   [8]  07 23 00 02 00 00 80 00
 (1756943972.164703)  can0  7E0   [8]  07 23 00 02 00 80 80 00
 (1756943972.183711)  can0  7E0   [8]  07 23 00 02 01 00 80 00
 (1756943972.202703)  can0  7E0   [8]  07 23 00 02 01 80 80 00
 (1756943972.221709)  can0  7E0   [8]  07 23 00 02 02 00 80 00
 (1756943972.240708)  can0  7E0   [8]  07 23 00 02 02 80 80 00
 (1756943972.259703)  can0  7E0   [8]  07 23 00 02 03 00 80 00
 (1756943972.278699)  can0  7E0   [8]  07 23 00 02 03 80 80 00
 (1756943972.297700)  can0  7E0   [8]  07 23 00 02 04 00 80 00
 (1756943972.316694)  can0  7E0   [8]  07 23 00 02 04 80 80 00
 (1756943972.335700)  can0  7E0   [8]  07 23 00 02 05 00 80 00
 (1756943972.354692)  can0  7E0   [8]  07 23 00 02 05 80 80 00
 (1756943972.373690)  can0  7E0   [8]  07 23 00 02 06 00 80 00
 (1756943972.392689)  can0  7E0   [8]  07 23 00 02 06 80 80 00
 (1756943972.411685)  can0  7E0   [8]  07 23 00 02 07 00 80 00
 (1756943972.430689)  can0  7E0   [8]  07 23 00 02 07 80 80 00
 (1756943972.449689)  can0  7E0   [8]  07 23 00 02 08 00 80 00
 (1756943972.468671)  can0  7E0   [8]  07 23 00 02 08 80 80 00
 (1756943972.487672)  can0  7E0   [8]  07 23 00 02 09 00 80 00
 (1756943972.506669)  can0  7E0   [8]  07 23 00 02 09 80 80 00
 (1756943972.525684)  can0  7E0   [8]  07 23 00 02 0A 00 80 00
 (1756943972.544664)  can0  7E0   [8]  07 23 00 02 0A 80 80 00
 (1756943972.563664)  can0  7E0   [8]  07 23 00 02 0B 00 80 00
 (1756943972.582665)  can0  7E0   [8]  07 23 00 02 0B 80 80 00
 (1756943972.601661)  can0  7E0   [8]  07 23 00 02 0C 00 80 00
 (1756943972.620660)  can0  7E0   [8]  07 23 00 02 0C 80 80 00
 (1756943972.639664)  can0  7E0   [8]  07 23 00 02 0D 00 80 00
 (1756943972.658660)  can0  7E0   [8]  07 23 00 02 0D 80 80 00
 (1756943972.677651)  can0  7E0   [8]  07 23 00 02 0E 00 80 00
 (1756943972.696651)  can0  7E0   [8]  07 23 00 02 0E 80 80 00
 (1756943972.715649)  can0  7E0   [8]  07 23 00 02 0F 00 80 00
 (1756943972.734650)  can0  7E0   [8]  07 23 00 02 0F 80 80 00
 (1756943972.753648)  can0  7E0   [8]  07 23 00 02 10 00 80 00
 (1756943972.772637)  can0  7E0   [8]  07 23 00 02 10 80 80 00
 (1756943972.791643)  can0  7E0   [8]  07 23 00 02 11 00 80 00
 (1756943972.810632)  can0  7E0   [8]  07 23 00 02 11 80 80 00
 (1756943972.829637)  can0  7E0   [8]  07 23 00 02 12 00 80 00
 (1756943972.848638)  can0  7E0   [8]  07 23 00 02 12 80 80 00
 (1756943972.867632)  can0  7E0   [8]  07 23 00 02 13 00 80 00
 (1756943972.886633)  can0  7E0   [8]  07 23 00 02 13 80 80 00
 (1756943972.905636)  can0  7E0   [8]  07 23 00 02 14 00 80 00
 (1756943972.924622)  can0  7E0   [8]  07 23 00 02 14 80 80 00
 (1756943972.943621)  can0  7E0   [8]  07 23 00 02 15 00 80 00
 (1756943972.962624)  can0  7E0   [8]  07 23 00 02 15 80 80 00
 (1756943972.981615)  can0  7E0   [8]  07 23 00 02 16 00 80 00
 (1756943973.000620)  can0  7E0   [8]  07 23 00 02 16 80 80 00
 (1756943973.019620)  can0  7E0   [8]  07 23 00 02 17 00 80 00
 (1756943973.038613)  can0  7E0   [8]  07 23 00 02 17 80 80 00
 (1756943973.057623)  can0  7E0   [8]  07 23 00 02 18 00 80 00
 (1756943973.076612)  can0  7E0   [8]  07 23 00 02 18 80 80 00
 (1756943973.095608)  can0  7E0   [8]  07 23 00 02 19 00 80 00
 (1756943973.114609)  can0  7E0   [8]  07 23 00 02 19 80 80 00
 (1756943973.133600)  can0  7E0   [8]  07 23 00 02 1A 00 80 00
 (1756943973.152600)  can0  7E0   [8]  07 23 00 02 1A 80 80 00
 (1756943973.171602)  can0  7E0   [8]  07 23 00 02 1B 00 80 00
 (1756943973.190606)  can0  7E0   [8]  07 23 00 02 1B 80 80 00
 (1756943973.209602)  can0  7E0   [8]  07 23 00 02 1C 00 80 00
 (1756943973.228593)  can0  7E0   [8]  07 23 00 02 1C 80 80 00
 (1756943973.247588)  can0  7E0   [8]  07 23 00 02 1D 00 80 00
 (1756943973.266596)  can0  7E0   [8]  07 23 00 02 1D 80 80 00
 (1756943973.285594)  can0  7E0   [8]  07 23 00 02 1E 00 80 00
 (1756943973.304589)  can0  7E0   [8]  07 23 00 02 1E 80 80 00
 (1756943973.323593)  can0  7E0   [8]  07 23 00 02 1F 00 80 00
 (1756943973.342582)  can0  7E0   [8]  07 23 00 02 1F 80 80 00
 (1756943973.361587)  can0  7E0   [8]  07 23 00 02 20 00 80 00
 (1756943973.380589)  can0  7E0   [8]  07 23 00 02 20 80 80 00
 (1756943973.399585)  can0  7E0   [8]  07 23 00 02 21 00 80 00
 (1756943973.418573)  can0  7E0   [8]  07 23 00 02 21 80 80 00
 (1756943973.437570)  can0  7E0   [8]  07 23 00 02 22 00 80 00
 (1756943973.456576)  can0  7E0   [8]  07 23 00 02 22 80 80 00
 (1756943973.475580)  can0  7E0   [8]  07 23 00 02 23 00 80 00
 (1756943973.494576)  can0  7E0   [8]  07 23 00 02 23 80 80 00
 (1756943973.513568)  can0  7E0   [8]  07 23 00 02 24 00 80 00
 (1756943973.532568)  can0  7E0   [8]  07 23 00 02 24 80 80 00
 (1756943973.551564)  can0  7E0   [8]  07 23 00 02 25 00 80 00
 (1756943973.570558)  can0  7E0   [8]  07 23 00 02 25 80 80 00
 (1756943973.589564)  can0  7E0   [8]  07 23 00 02 26 00 80 00
 (1756943973.608563)  can0  7E0   [8]  07 23 00 02 26 80 80 00
 (1756943973.627552)  can0  7E0   [8]  07 23 00 02 27 00 80 00
 (1756943973.646552)  can0  7E0   [8]  07 23 00 02 27 80 80 00
 (1756943973.665558)  can0  7E0   [8]  07 23 00 02 28 00 80 00
 (1756943973.684559)  can0  7E0   [8]  07 23 00 02 28 80 80 00
 (1756943973.703551)  can0  7E0   [8]  07 23 00 02 29 00 80 00
 (1756943973.722549)  can0  7E0   [8]  07 23 00 02 29 80 80 00
 (1756943973.741543)  can0  7E0   [8]  07 23 00 02 2A 00 80 00
 (1756943973.760540)  can0  7E0   [8]  07 23 00 02 2A 80 80 00
 (1756943973.779537)  can0  7E0   [8]  07 23 00 02 2B 00 80 00
 (1756943973.798541)  can0  7E0   [8]  07 23 00 02 2B 80 80 00
 (1756943973.817534)  can0  7E0   [8]  07 23 00 02 2C 00 80 00
 (1756943973.836533)  can0  7E0   [8]  07 23 00 02 2C 80 80 00
 (1756943973.855527)  can0  7E0   [8]  07 23 00 02 2D 00 80 00
 (1756943973.874532)  can0  7E0   [8]  07 23 00 02 2D 80 80 00
 (1756943973.893528)  can0  7E0   [8]  07 23 00 02 2E 00 80 00
 (1756943973.912537)  can0  7E0   [8]  07 23 00 02 2E 80 80 00
 (1756943973.931531)  can0  7E0   [8]  07 23 00 02 2F 00 80 00
 (1756943973.950529)  can0  7E0   [8]  07 23 00 02 2F 80 80 00
 (1756943973.969521)  can0  7E0   [8]  07 23 00 02 30 00 80 00
 (1756943973.988522)  can0  7E0   [8]  07 23 00 02 30 80 80 00
 (1756943974.007521)  can0  7E0   [8]  07 23 00 02 31 00 80 00
 (1756943974.026519)  can0  7E0   [8]  07 23 00 02 31 80 80 00
 (1756943974.045522)  can0  7E0   [8]  07 23 00 02 32 00 80 00
 (1756943974.064513)  can0  7E0   [8]  07 23 00 02 32 80 80 00
 (1756943974.083509)  can0  7E0   [8]  07 23 00 02 33 00 80 00
 (1756943974.102512)  can0  7E0   [8]  07 23 00 02 33 80 80 00
 (1756943974.121514)  can0  7E0   [8]  07 23 00 02 34 00 80 00
 (1756943974.140511)  can0  7E0   [8]  07 23 00 02 34 80 80 00
 (1756943974.159501)  can0  7E0   [8]  07 23 00 02 35 00 80 00
 (1756943974.178502)  can0  7E0   [8]  07 23 00 02 35 80 80 00
 (1756943974.197496)  can0  7E0   [8]  07 23 00 02 36 00 80 00
 (1756943974.216505)  can0  7E0   [8]  07 23 00 02 36 80 80 00
 (1756943974.235491)  can0  7E0   [8]  07 23 00 02 37 00 80 00
 (1756943974.254496)  can0  7E0   [8]  07 23 00 02 37 80 80 00
 (1756943974.273496)  can0  7E0   [8]  07 23 00 02 38 00 80 00
 (1756943974.292493)  can0  7E0   [8]  07 23 00 02 38 80 80 00
 (1756943974.311489)  can0  7E0   [8]  07 23 00 02 39 00 80 00
 (1756943974.330494)  can0  7E0   [8]  07 23 00 02 39 80 80 00
 (1756943974.349488)  can0  7E0   [8]  07 23 00 02 3A 00 80 00
 (1756943974.368473)  can0  7E0   [8]  07 23 00 02 3A 80 80 00
 (1756943974.387479)  can0  7E0   [8]  07 23 00 02 3B 00 80 00
 (1756943974.406477)  can0  7E0   [8]  07 23 00 02 3B 80 80 00
 (1756943974.425489)  can0  7E0   [8]  07 23 00 02 3C 00 80 00
 (1756943974.444475)  can0  7E0   [8]  07 23 00 02 3C 80 80 00
 (1756943974.463478)  can0  7E0   [8]  07 23 00 02 3D 00 80 00
 (1756943974.482474)  can0  7E0   [8]  07 23 00 02 3D 80 80 00
 (1756943974.501471)  can0  7E0   [8]  07 23 00 02 3E 00 80 00
 (1756943974.520475)  can0  7E0   [8]  07 23 00 02 3E 80 80 00
 (1756943974.539484)  can0  7E0   [8]  07 23 00 02 3F 00 80 00
 (1756943974.558471)  can0  7E0   [8]  07 23 00 02 3F 80 80 00
 (1756943974.577463)  can0  7E0   [8]  07 23 00 02 40 00 80 00
 (1756943974.596460)  can0  7E0   [8]  07 23 00 02 40 80 80 00
 (1756943974.615462)  can0  7E0   [8]  07 23 00 02 41 00 80 00
 (1756943974.634464)  can0  7E0   [8]  07 23 00 02 41 80 80 00
 (1756943974.653452)  can0  7E0   [8]  07 23 00 02 42 00 80 00
 (1756943974.672454)  can0  7E0   [8]  07 23 00 02 42 80 80 00
 (1756943974.691452)  can0  7E0   [8]  07 23 00 02 43 00 80 00
 (1756943974.710449)  can0  7E0   [8]  07 23 00 02 43 80 80 00
 (1756943974.729450)  can0  7E0   [8]  07 23 00 02 44 00 80 00
 (1756943974.748453)  can0  7E0   [8]  07 23 00 02 44 80 80 00
 (1756943974.767454)  can0  7E0   [8]  07 23 00 02 45 00 80 00
 (1756943974.786446)  can0  7E0   [8]  07 23 00 02 45 80 80 00
 (1756943974.805446)  can0  7E0   [8]  07 23 00 02 46 00 80 00
 (1756943974.824448)  can0  7E0   [8]  07 23 00 02 46 80 80 00
 (1756943974.843467)  can0  7E0   [8]  07 23 00 02 47 00 80 00
 (1756943974.862448)  can0  7E0   [8]  07 23 00 02 47 80 80 00
 (1756943974.881443)  can0  7E0   [8]  07 23 00 02 48 00 80 00
 (1756943974.900456)  can0  7E0   [8]  07 23 00 02 48 80 80 00
 (1756943974.919457)  can0  7E0   [8]  07 23 00 02 49 00 80 00
 (1756943974.938438)  can0  7E0   [8]  07 23 00 02 49 80 80 00
 (1756943974.957443)  can0  7E0   [8]  07 23 00 02 4A 00 80 00
 (1756943974.976441)  can0  7E0   [8]  07 23 00 02 4A 80 80 00
 (1756943974.995439)  can0  7E0   [8]  07 23 00 02 4B 00 80 00
 (1756943975.014433)  can0  7E0   [8]  07 23 00 02 4B 80 80 00
 (1756943975.033440)  can0  7E0   [8]  07 23 00 02 4C 00 80 00
 (1756943975.052438)  can0  7E0   [8]  07 23 00 02 4C 80 80 00
 (1756943975.071427)  can0  7E0   [8]  07 23 00 02 4D 00 80 00
 (1756943975.090422)  can0  7E0   [8]  07 23 00 02 4D 80 80 00
 (1756943975.109426)  can0  7E0   [8]  07 23 00 02 4E 00 80 00
 (1756943975.128419)  can0  7E0   [8]  07 23 00 02 4E 80 80 00
 (1756943975.147425)  can0  7E0   [8]  07 23 00 02 4F 00 80 00
 (1756943975.166429)  can0  7E0   [8]  07 23 00 02 4F 80 80 00
 (1756943975.185432)  can0  7E0   [8]  07 23 00 02 50 00 80 00
 (1756943975.204410)  can0  7E0   [8]  07 23 00 02 50 80 80 00
 (1756943975.223412)  can0  7E0   [8]  07 23 00 02 51 00 80 00
 (1756943975.242405)  can0  7E0   [8]  07 23 00 02 51 80 80 00
 (1756943975.261415)  can0  7E0   [8]  07 23 00 02 52 00 80 00
 (1756943975.280408)  can0  7E0   [8]  07 23 00 02 52 80 80 00
 (1756943975.299409)  can0  7E0   [8]  07 23 00 02 53 00 80 00
 (1756943975.318406)  can0  7E0   [8]  07 23 00 02 53 80 80 00
 (1756943975.337405)  can0  7E0   [8]  07 23 00 02 54 00 80 00
 (1756943975.356395)  can0  7E0   [8]  07 23 00 02 54 80 80 00
 (1756943975.375403)  can0  7E0   [8]  07 23 00 02 55 00 80 00
 (1756943975.394402)  can0  7E0   [8]  07 23 00 02 55 80 80 00
 (1756943975.413393)  can0  7E0   [8]  07 23 00 02 56 00 80 00
 (1756943975.432388)  can0  7E0   [8]  07 23 00 02 56 80 80 00
 (1756943975.451391)  can0  7E0   [8]  07 23 00 02 57 00 80 00
 (1756943975.470388)  can0  7E0   [8]  07 23 00 02 57 80 80 00
 (1756943975.489392)  can0  7E0   [8]  07 23 00 02 58 00 80 00
 (1756943975.508389)  can0  7E0   [8]  07 23 00 02 58 80 80 00
 (1756943975.527387)  can0  7E0   [8]  07 23 00 02 59 00 80 00
 (1756943975.546387)  can0  7E0   [8]  07 23 00 02 59 80 80 00
 (1756943975.565387)  can0  7E0   [8]  07 23 00 02 5A 00 80 00
 (1756943975.584383)  can0  7E0   [8]  07 23 00 02 5A 80 80 00
 (1756943975.603381)  can0  7E0   [8]  07 23 00 02 5B 00 80 00
 (1756943975.622373)  can0  7E0   [8]  07 23 00 02 5B 80 80 00
 (1756943975.641379)  can0  7E0   [8]  07 23 00 02 5C 00 80 00
 (1756943975.660369)  can0  7E0   [8]  07 23 00 02 5C 80 80 00
 (1756943975.679376)  can0  7E0   [8]  07 23 00 02 5D 00 80 00
 (1756943975.698366)  can0  7E0   [8]  07 23 00 02 5D 80 80 00
 (1756943975.717368)  can0  7E0   [8]  07 23 00 02 5E 00 80 00
 (1756943975.736363)  can0  7E0   [8]  07 23 00 02 5E 80 80 00
 (1756943975.755365)  can0  7E0   [8]  07 23 00 02 5F 00 80 00
 (1756943975.774359)  can0  7E0   [8]  07 23 00 02 5F 80 80 00
 (1756943975.793371)  can0  7E0   [8]  07 23 00 02 60 00 80 00
 (1756943975.812362)  can0  7E0   [8]  07 23 00 02 60 80 80 00
 (1756943975.831353)  can0  7E0   [8]  07 23 00 02 61 00 80 00
 (1756943975.850353)  can0  7E0   [8]  07 23 00 02 61 80 80 00
 (1756943975.869352)  can0  7E0   [8]  07 23 00 02 62 00 80 00
 (1756943975.888348)  can0  7E0   [8]  07 23 00 02 62 80 80 00
 (1756943975.907349)  can0  7E0   [8]  07 23 00 02 63 00 80 00
 (1756943975.926345)  can0  7E0   [8]  07 23 00 02 63 80 80 00
 (1756943975.945348)  can0  7E0   [8]  07 23 00 02 64 00 80 00
 (1756943975.964342)  can0  7E0   [8]  07 23 00 02 64 80 80 00
 (1756943975.983341)  can0  7E0   [8]  07 23 00 02 65 00 80 00
 (1756943976.002341)  can0  7E0   [8]  07 23 00 02 65 80 80 00
 (1756943976.021346)  can0  7E0   [8]  07 23 00 02 66 00 80 00
 (1756943976.040335)  can0  7E0   [8]  07 23 00 02 66 80 80 00
 (1756943976.059330)  can0  7E0   [8]  07 23 00 02 67 00 80 00
 (1756943976.078326)  can0  7E0   [8]  07 23 00 02 67 80 80 00
 (1756943976.097333)  can0  7E0   [8]  07 23 00 02 68 00 80 00
 (1756943976.116324)  can0  7E0   [8]  07 23 00 02 68 80 80 00
 (1756943976.135327)  can0  7E0   [8]  07 23 00 02 69 00 80 00
 (1756943976.154318)  can0  7E0   [8]  07 23 00 02 69 80 80 00
 (1756943976.173326)  can0  7E0   [8]  07 23 00 02 6A 00 80 00
 (1756943976.192315)  can0  7E0   [8]  07 23 00 02 6A 80 80 00
 (1756943976.211323)  can0  7E0   [8]  07 23 00 02 6B 00 80 00
 (1756943976.230322)  can0  7E0   [8]  07 23 00 02 6B 80 80 00
 (1756943976.249321)  can0  7E0   [8]  07 23 00 02 6C 00 80 00
 (1756943976.268310)  can0  7E0   [8]  07 23 00 02 6C 80 80 00
 (1756943976.287311)  can0  7E0   [8]  07 23 00 02 6D 00 80 00
 (1756943976.306305)  can0  7E0   [8]  07 23 00 02 6D 80 80 00
 (1756943976.325309)  can0  7E0   [8]  07 23 00 02 6E 00 80 00
 (1756943976.344303)  can0  7E0   [8]  07 23 00 02 6E 80 80 00
 (1756943976.363301)  can0  7E0   [8]  07 23 00 02 6F 00 80 00
 (1756943976.382296)  can0  7E0   [8]  07 23 00 02 6F 80 80 00
 (1756943976.401301)  can0  7E0   [8]  07 23 00 02 70 00 80 00
 (1756943976.420297)  can0  7E0   [8]  07 23 00 02 70 80 80 00
 (1756943976.439302)  can0  7E0   [8]  07 23 00 02 71 00 80 00
 (1756943976.458298)  can0  7E0   [8]  07 23 00 02 71 80 80 00
 (1756943976.477287)  can0  7E0   [8]  07 23 00 02 72 00 80 00
 (1756943976.496291)  can0  7E0   [8]  07 23 00 02 72 80 80 00
 (1756943976.515330)  can0  7E0   [8]  07 23 00 02 73 00 80 00
 (1756943976.534286)  can0  7E0   [8]  07 23 00 02 73 80 80 00
 (1756943976.553281)  can0  7E0   [8]  07 23 00 02 74 00 80 00
 (1756943976.572296)  can0  7E0   [8]  07 23 00 02 74 80 80 00
 (1756943976.591283)  can0  7E0   [8]  07 23 00 02 75 00 80 00
 (1756943976.610282)  can0  7E0   [8]  07 23 00 02 75 80 80 00
 (1756943976.629276)  can0  7E0   [8]  07 23 00 02 76 00 80 00
 (1756943976.648281)  can0  7E0   [8]  07 23 00 02 76 80 80 00
 (1756943976.667279)  can0  7E0   [8]  07 23 00 02 77 00 80 00
 (1756943976.686272)  can0  7E0   [8]  07 23 00 02 77 80 80 00
 (1756943976.705275)  can0  7E0   [8]  07 23 00 02 78 00 80 00
 (1756943976.724265)  can0  7E0   [8]  07 23 00 02 78 80 80 00
 (1756943976.743269)  can0  7E0   [8]  07 23 00 02 79 00 80 00
 (1756943976.762265)  can0  7E0   [8]  07 23 00 02 79 80 80 00
 (1756943976.781260)  can0  7E0   [8]  07 23 00 02 7A 00 80 00
 (1756943976.800263)  can0  7E0   [8]  07 23 00 02 7A 80 80 00
 (1756943976.819257)  can0  7E0   [8]  07 23 00 02 7B 00 80 00
 (1756943976.838254)  can0  7E0   [8]  07 23 00 02 7B 80 80 00
 (1756943976.857261)  can0  7E0   [8]  07 23 00 02 7C 00 80 00
 (1756943976.876259)  can0  7E0   [8]  07 23 00 02 7C 80 80 00
 (1756943976.895251)  can0  7E0   [8]  07 23 00 02 7D 00 80 00
 (1756943976.914250)  can0  7E0   [8]  07 23 00 02 7D 80 80 00
 (1756943976.933250)  can0  7E0   [8]  07 23 00 02 7E 00 80 00
 (1756943976.952246)  can0  7E0   [8]  07 23 00 02 7E 80 80 00
 (1756943976.971241)  can0  7E0   [8]  07 23 00 02 7F 00 80 00
 (1756943976.990242)  can0  7E0   [8]  07 23 00 02 7F 80 80 00
 (1756943977.009237)  can0  7E0   [8]  07 23 00 02 80 00 80 00
 (1756943977.028238)  can0  7E0   [8]  07 23 00 02 80 80 80 00
 (1756943977.047250)  can0  7E0   [8]  07 23 00 02 81 00 80 00
 (1756943977.066242)  can0  7E0   [8]  07 23 00 02 81 80 80 00
 (1756943977.085239)  can0  7E0   [8]  07 23 00 02 82 00 80 00
 (1756943977.104230)  can0  7E0   [8]  07 23 00 02 82 80 80 00
 (1756943977.123233)  can0  7E0   [8]  07 23 00 02 83 00 80 00
 (1756943977.142234)  can0  7E0   [8]  07 23 00 02 83 80 80 00
 (1756943977.161225)  can0  7E0   [8]  07 23 00 02 84 00 80 00
 (1756943977.180219)  can0  7E0   [8]  07 23 00 02 84 80 80 00
 (1756943977.199224)  can0  7E0   [8]  07 23 00 02 85 00 80 00
 (1756943977.218220)  can0  7E0   [8]  07 23 00 02 85 80 80 00
 (1756943977.237216)  can0  7E0   [8]  07 23 00 02 86 00 80 00
 (1756943977.256214)  can0  7E0   [8]  07 23 00 02 86 80 80 00
 (1756943977.275216)  can0  7E0   [8]  07 23 00 02 87 00 80 00
 (1756943977.294221)  can0  7E0   [8]  07 23 00 02 87 80 80 00
 (1756943977.313211)  can0  7E0   [8]  07 23 00 02 88 00 80 00
 (1756943977.332206)  can0  7E0   [8]  07 23 00 02 88 80 80 00
 (1756943977.351208)  can0  7E0   [8]  07 23 00 02 89 00 80 00
 (1756943977.370203)  can0  7E0   [8]  07 23 00 02 89 80 80 00
 (1756943977.389201)  can0  7E0   [8]  07 23 00 02 8A 00 80 00
 (1756943977.408206)  can0  7E0   [8]  07 23 00 02 8A 80 80 00
 (1756943977.427191)  can0  7E0   [8]  07 23 00 02 8B 00 80 00
 (1756943977.446206)  can0  7E0   [8]  07 23 00 02 8B 80 80 00
 (1756943977.465192)  can0  7E0   [8]  07 23 00 02 8C 00 80 00
 (1756943977.484199)  can0  7E0   [8]  07 23 00 02 8C 80 80 00
 (1756943977.503198)  can0  7E0   [8]  07 23 00 02 8D 00 80 00
 (1756943977.522189)  can0  7E0   [8]  07 23 00 02 8D 80 80 00
 (1756943977.541188)  can0  7E0   [8]  07 23 00 02 8E 00 80 00
 (1756943977.560186)  can0  7E0   [8]  07 23 00 02 8E 80 80 00
 (1756943977.579182)  can0  7E0   [8]  07 23 00 02 8F 00 80 00
 (1756943977.598185)  can0  7E0   [8]  07 23 00 02 8F 80 80 00
 (1756943977.617177)  can0  7E0   [8]  07 23 00 02 90 00 80 00
 (1756943977.636178)  can0  7E0   [8]  07 23 00 02 90 80 80 00
 (1756943977.655174)  can0  7E0   [8]  07 23 00 02 91 00 80 00
 (1756943977.674175)  can0  7E0   [8]  07 23 00 02 91 80 80 00
 (1756943977.693174)  can0  7E0   [8]  07 23 00 02 92 00 80 00
 (1756943977.712179)  can0  7E0   [8]  07 23 00 02 92 80 80 00
 (1756943977.731167)  can0  7E0   [8]  07 23 00 02 93 00 80 00
 (1756943977.750158)  can0  7E0   [8]  07 23 00 02 93 80 80 00
 (1756943977.769164)  can0  7E0   [8]  07 23 00 02 94 00 80 00
 (1756943977.788166)  can0  7E0   [8]  07 23 00 02 94 80 80 00
 (1756943977.807163)  can0  7E0   [8]  07 23 00 02 95 00 80 00
 (1756943977.826159)  can0  7E0   [8]  07 23 00 02 95 80 80 00
 (1756943977.845154)  can0  7E0   [8]  07 23 00 02 96 00 80 00
 (1756943977.864154)  can0  7E0   [8]  07 23 00 02 96 80 80 00
 (1756943977.883150)  can0  7E0   [8]  07 23 00 02 97 00 80 00
 (1756943977.902157)  can0  7E0   [8]  07 23 00 02 97 80 80 00
 (1756943977.921158)  can0  7E0   [8]  07 23 00 02 98 00 80 00
 (1756943977.940151)  can0  7E0   [8]  07 23 00 02 98 80 80 00
 (1756943977.959145)  can0  7E0   [8]  07 23 00 02 99 00 80 00
 (1756943977.978146)  can0  7E0   [8]  07 23 00 02 99 80 80 00
 (1756943977.997140)  can0  7E0   [8]  07 23 00 02 9A 00 80 00
 (1756943978.016136)  can0  7E0   [8]  07 23 00 02 9A 80 80 00
 (1756943978.035131)  can0  7E0   [8]  07 23 00 02 9B 00 80 00
 (1756943978.054140)  can0  7E0   [8]  07 23 00 02 9B 80 80 00
 (1756943978.073136)  can0  7E0   [8]  07 23 00 02 9C 00 80 00
 (1756943978.092133)  can0  7E0   [8]  07 23 00 02 9C 80 80 00
 (1756943978.111135)  can0  7E0   [8]  07 23 00 02 9D 00 80 00
 (1756943978.130131)  can0  7E0   [8]  07 23 00 02 9D 80 80 00
 (1756943978.149128)  can0  7E0   [8]  07 23 00 02 9E 00 80 00
 (1756943978.168128)  can0  7E0   [8]  07 23 00 02 9E 80 80 00
 (1756943978.187146)  can0  7E0   [8]  07 23 00 02 9F 00 80 00
 (1756943978.206116)  can0  7E0   [8]  07 23 00 02 9F 80 80 00
 (1756943978.225115)  can0  7E0   [8]  07 23 00 02 A0 00 80 00
 (1756943978.244119)  can0  7E0   [8]  07 23 00 02 A0 80 80 00
 (1756943978.263118)  can0  7E0   [8]  07 23 00 02 A1 00 80 00
 (1756943978.282117)  can0  7E0   [8]  07 23 00 02 A1 80 80 00
 (1756943978.301117)  can0  7E0   [8]  07 23 00 02 A2 00 80 00
 (1756943978.320115)  can0  7E0   [8]  07 23 00 02 A2 80 80 00
 (1756943978.339110)  can0  7E0   [8]  07 23 00 02 A3 00 80 00
 (1756943978.358107)  can0  7E0   [8]  07 23 00 02 A3 80 80 00
 (1756943978.377106)  can0  7E0   [8]  07 23 00 02 A4 00 80 00
 (1756943978.396100)  can0  7E0   [8]  07 23 00 02 A4 80 80 00
 (1756943978.415101)  can0  7E0   [8]  07 23 00 02 A5 00 80 00
 (1756943978.434100)  can0  7E0   [8]  07 23 00 02 A5 80 80 00
 (1756943978.453096)  can0  7E0   [8]  07 23 00 02 A6 00 80 00
 (1756943978.472097)  can0  7E0   [8]  07 23 00 02 A6 80 80 00
 (1756943978.491097)  can0  7E0   [8]  07 23 00 02 A7 00 80 00
 (1756943978.510088)  can0  7E0   [8]  07 23 00 02 A7 80 80 00
 (1756943978.529100)  can0  7E0   [8]  07 23 00 02 A8 00 80 00
 (1756943978.548095)  can0  7E0   [8]  07 23 00 02 A8 80 80 00
 (1756943978.567082)  can0  7E0   [8]  07 23 00 02 A9 00 80 00
 (1756943978.586079)  can0  7E0   [8]  07 23 00 02 A9 80 80 00
 (1756943978.605081)  can0  7E0   [8]  07 23 00 02 AA 00 80 00
 (1756943978.624081)  can0  7E0   [8]  07 23 00 02 AA 80 80 00
 (1756943978.643082)  can0  7E0   [8]  07 23 00 02 AB 00 80 00
 (1756943978.662074)  can0  7E0   [8]  07 23 00 02 AB 80 80 00
 (1756943978.681077)  can0  7E0   [8]  07 23 00 02 AC 00 80 00
 (1756943978.700068)  can0  7E0   [8]  07 23 00 02 AC 80 80 00
 (1756943978.719073)  can0  7E0   [8]  07 23 00 02 AD 00 80 00
 (1756943978.738076)  can0  7E0   [8]  07 23 00 02 AD 80 80 00
 (1756943978.757076)  can0  7E0   [8]  07 23 00 02 AE 00 80 00
 (1756943978.776071)  can0  7E0   [8]  07 23 00 02 AE 80 80 00
 (1756943978.795061)  can0  7E0   [8]  07 23 00 02 AF 00 80 00
 (1756943978.814061)  can0  7E0   [8]  07 23 00 02 AF 80 80 00
 (1756943978.833061)  can0  7E0   [8]  07 23 00 02 B0 00 80 00
 (1756943978.852054)  can0  7E0   [8]  07 23 00 02 B0 80 80 00
 (1756943978.871057)  can0  7E0   [8]  07 23 00 02 B1 00 80 00
 (1756943978.890057)  can0  7E0   [8]  07 23 00 02 B1 80 80 00
 (1756943978.909054)  can0  7E0   [8]  07 23 00 02 B2 00 80 00
 (1756943978.928056)  can0  7E0   [8]  07 23 00 02 B2 80 80 00
 (1756943978.947056)  can0  7E0   [8]  07 23 00 02 B3 00 80 00
 (1756943978.966056)  can0  7E0   [8]  07 23 00 02 B3 80 80 00
 (1756943978.985048)  can0  7E0   [8]  07 23 00 02 B4 00 80 00
 (1756943979.004043)  can0  7E0   [8]  07 23 00 02 B4 80 80 00
 (1756943979.023051)  can0  7E0   [8]  07 23 00 02 B5 00 80 00
 (1756943979.042035)  can0  7E0   [8]  07 23 00 02 B5 80 80 00
 (1756943979.061046)  can0  7E0   [8]  07 23 00 02 B6 00 80 00
 (1756943979.080037)  can0  7E0   [8]  07 23 00 02 B6 80 80 00
 (1756943979.099037)  can0  7E0   [8]  07 23 00 02 B7 00 80 00
 (1756943979.118029)  can0  7E0   [8]  07 23 00 02 B7 80 80 00
 (1756943979.137033)  can0  7E0   [8]  07 23 00 02 B8 00 80 00
 (1756943979.156037)  can0  7E0   [8]  07 23 00 02 B8 80 80 00
 (1756943979.175043)  can0  7E0   [8]  07 23 00 02 B9 00 80 00
 (1756943979.194047)  can0  7E0   [8]  07 23 00 02 B9 80 80 00
 (1756943979.213027)  can0  7E0   [8]  07 23 00 02 BA 00 80 00
 (1756943979.232028)  can0  7E0   [8]  07 23 00 02 BA 80 80 00
 (1756943979.251026)  can0  7E0   [8]  07 23 00 02 BB 00 80 00
 (1756943979.270024)  can0  7E0   [8]  07 23 00 02 BB 80 80 00
 (1756943979.288995)  can0  7E0   [8]  07 23 00 02 BC 00 80 00
 (1756943979.308005)  can0  7E0   [8]  07 23 00 02 BC 80 80 00
 (1756943979.327000)  can0  7E0   [8]  07 23 00 02 BD 00 80 00
 (1756943979.345996)  can0  7E0   [8]  07 23 00 02 BD 80 80 00
 (1756943979.364999)  can0  7E0   [8]  07 23 00 02 BE 00 80 00
 (1756943979.383998)  can0  7E0   [8]  07 23 00 02 BE 80 80 00
 (1756943979.402995)  can0  7E0   [8]  07 23 00 02 BF 00 80 00
 (1756943979.421992)  can0  7E0   [8]  07 23 00 02 BF 80 80 00
 (1756943979.440987)  can0  7E0   [8]  07 23 00 02 C0 00 80 00
 (1756943979.460061)  can0  7E0   [8]  07 23 00 02 C0 80 80 00
 (1756943979.478987)  can0  7E0   [8]  07 23 00 02 C1 00 80 00
 (1756943979.497981)  can0  7E0   [8]  07 23 00 02 C1 80 80 00
 (1756943979.516980)  can0  7E0   [8]  07 23 00 02 C2 00 80 00
 (1756943979.535974)  can0  7E0   [8]  07 23 00 02 C2 80 80 00
 (1756943979.554981)  can0  7E0   [8]  07 23 00 02 C3 00 80 00
 (1756943979.573973)  can0  7E0   [8]  07 23 00 02 C3 80 80 00
 (1756943979.592981)  can0  7E0   [8]  07 23 00 02 C4 00 80 00
 (1756943979.611977)  can0  7E0   [8]  07 23 00 02 C4 80 80 00
 (1756943979.630976)  can0  7E0   [8]  07 23 00 02 C5 00 80 00
 (1756943979.649968)  can0  7E0   [8]  07 23 00 02 C5 80 80 00
 (1756943979.668970)  can0  7E0   [8]  07 23 00 02 C6 00 80 00
 (1756943979.687961)  can0  7E0   [8]  07 23 00 02 C6 80 80 00
 (1756943979.706966)  can0  7E0   [8]  07 23 00 02 C7 00 80 00
 (1756943979.725958)  can0  7E0   [8]  07 23 00 02 C7 80 80 00
 (1756943979.744955)  can0  7E0   [8]  07 23 00 02 C8 00 80 00
 (1756943979.763951)  can0  7E0   [8]  07 23 00 02 C8 80 80 00
 (1756943979.782953)  can0  7E0   [8]  07 23 00 02 C9 00 80 00
 (1756943979.801957)  can0  7E0   [8]  07 23 00 02 C9 80 80 00
 (1756943979.820957)  can0  7E0   [8]  07 23 00 02 CA 00 80 00
 (1756943979.839957)  can0  7E0   [8]  07 23 00 02 CA 80 80 00
 (1756943979.858955)  can0  7E0   [8]  07 23 00 02 CB 00 80 00
 (1756943979.877947)  can0  7E0   [8]  07 23 00 02 CB 80 80 00
 (1756943979.896937)  can0  7E0   [8]  07 23 00 02 CC 00 80 00
 (1756943979.915931)  can0  7E0   [8]  07 23 00 02 CC 80 80 00
 (1756943979.934934)  can0  7E0   [8]  07 23 00 02 CD 00 80 00
 (1756943979.953935)  can0  7E0   [8]  07 23 00 02 CD 80 80 00
 (1756943979.972935)  can0  7E0   [8]  07 23 00 02 CE 00 80 00
 (1756943979.991938)  can0  7E0   [8]  07 23 00 02 CE 80 80 00
 (1756943980.010940)  can0  7E0   [8]  07 23 00 02 CF 00 80 00
 (1756943980.029946)  can0  7E0   [8]  07 23 00 02 CF 80 80 00
 (1756943980.048932)  can0  7E0   [8]  07 23 00 02 D0 00 80 00
 (1756943980.067926)  can0  7E0   [8]  07 23 00 02 D0 80 80 00
 (1756943980.086917)  can0  7E0   [8]  07 23 00 02 D1 00 80 00
 (1756943980.105922)  can0  7E0   [8]  07 23 00 02 D1 80 80 00
 (1756943980.124914)  can0  7E0   [8]  07 23 00 02 D2 00 80 00
 (1756943980.143918)  can0  7E0   [8]  07 23 00 02 D2 80 80 00
 (1756943980.162915)  can0  7E0   [8]  07 23 00 02 D3 00 80 00
 (1756943980.181920)  can0  7E0   [8]  07 23 00 02 D3 80 80 00
 (1756943980.200909)  can0  7E0   [8]  07 23 00 02 D4 00 80 00
 (1756943980.219913)  can0  7E0   [8]  07 23 00 02 D4 80 80 00
 (1756943980.238907)  can0  7E0   [8]  07 23 00 02 D5 00 80 00
 (1756943980.257908)  can0  7E0   [8]  07 23 00 02 D5 80 80 00
 (1756943980.276903)  can0  7E0   [8]  07 23 00 02 D6 00 80 00
 (1756943980.295908)  can0  7E0   [8]  07 23 00 02 D6 80 80 00
 (1756943980.314895)  can0  7E0   [8]  07 23 00 02 D7 00 80 00
 (1756943980.333898)  can0  7E0   [8]  07 23 00 02 D7 80 80 00
 (1756943980.352901)  can0  7E0   [8]  07 23 00 02 D8 00 80 00
 (1756943980.371896)  can0  7E0   [8]  07 23 00 02 D8 80 80 00
 (1756943980.390888)  can0  7E0   [8]  07 23 00 02 D9 00 80 00
 (1756943980.409897)  can0  7E0   [8]  07 23 00 02 D9 80 80 00
 (1756943980.428894)  can0  7E0   [8]  07 23 00 02 DA 00 80 00
 (1756943980.447889)  can0  7E0   [8]  07 23 00 02 DA 80 80 00
 (1756943980.466886)  can0  7E0   [8]  07 23 00 02 DB 00 80 00
 (1756943980.485883)  can0  7E0   [8]  07 23 00 02 DB 80 80 00
 (1756943980.504886)  can0  7E0   [8]  07 23 00 02 DC 00 80 00
 (1756943980.523879)  can0  7E0   [8]  07 23 00 02 DC 80 80 00
 (1756943980.542876)  can0  7E0   [8]  07 23 00 02 DD 00 80 00
 (1756943980.561880)  can0  7E0   [8]  07 23 00 02 DD 80 80 00
 (1756943980.580881)  can0  7E0   [8]  07 23 00 02 DE 00 80 00
 (1756943980.599871)  can0  7E0   [8]  07 23 00 02 DE 80 80 00
 (1756943980.618886)  can0  7E0   [8]  07 23 00 02 DF 00 80 00
 (1756943980.637876)  can0  7E0   [8]  07 23 00 02 DF 80 80 00
 (1756943980.656873)  can0  7E0   [8]  07 23 00 02 E0 00 80 00
 (1756943980.675871)  can0  7E0   [8]  07 23 00 02 E0 80 80 00
 (1756943980.694866)  can0  7E0   [8]  07 23 00 02 E1 00 80 00
 (1756943980.713861)  can0  7E0   [8]  07 23 00 02 E1 80 80 00
 (1756943980.732867)  can0  7E0   [8]  07 23 00 02 E2 00 80 00
 (1756943980.751867)  can0  7E0   [8]  07 23 00 02 E2 80 80 00
 (1756943980.770863)  can0  7E0   [8]  07 23 00 02 E3 00 80 00
 (1756943980.789859)  can0  7E0   [8]  07 23 00 02 E3 80 80 00
 (1756943980.808853)  can0  7E0   [8]  07 23 00 02 E4 00 80 00
 (1756943980.827849)  can0  7E0   [8]  07 23 00 02 E4 80 80 00
 (1756943980.846858)  can0  7E0   [8]  07 23 00 02 E5 00 80 00
 (1756943980.865867)  can0  7E0   [8]  07 23 00 02 E5 80 80 00
 (1756943980.884848)  can0  7E0   [8]  07 23 00 02 E6 00 80 00
 (1756943980.903845)  can0  7E0   [8]  07 23 00 02 E6 80 80 00
 (1756943980.922841)  can0  7E0   [8]  07 23 00 02 E7 00 80 00
 (1756943980.941842)  can0  7E0   [8]  07 23 00 02 E7 80 80 00
 (1756943980.960840)  can0  7E0   [8]  07 23 00 02 E8 00 80 00
 (1756943980.979838)  can0  7E0   [8]  07 23 00 02 E8 80 80 00
 (1756943980.998833)  can0  7E0   [8]  07 23 00 02 E9 00 80 00
 (1756943981.017838)  can0  7E0   [8]  07 23 00 02 E9 80 80 00
 (1756943981.036834)  can0  7E0   [8]  07 23 00 02 EA 00 80 00
 (1756943981.055840)  can0  7E0   [8]  07 23 00 02 EA 80 80 00
 (1756943981.074845)  can0  7E0   [8]  07 23 00 02 EB 00 80 00
 (1756943981.093848)  can0  7E0   [8]  07 23 00 02 EB 80 80 00
 (1756943981.112839)  can0  7E0   [8]  07 23 00 02 EC 00 80 00
 (1756943981.131845)  can0  7E0   [8]  07 23 00 02 EC 80 80 00
 (1756943981.150824)  can0  7E0   [8]  07 23 00 02 ED 00 80 00
 (1756943981.169823)  can0  7E0   [8]  07 23 00 02 ED 80 80 00
 (1756943981.188823)  can0  7E0   [8]  07 23 00 02 EE 00 80 00
 (1756943981.207808)  can0  7E0   [8]  07 23 00 02 EE 80 80 00
 (1756943981.226807)  can0  7E0   [8]  07 23 00 02 EF 00 80 00
 (1756943981.245807)  can0  7E0   [8]  07 23 00 02 EF 80 80 00
 (1756943981.264822)  can0  7E0   [8]  07 23 00 02 F0 00 80 00
 (1756943981.283811)  can0  7E0   [8]  07 23 00 02 F0 80 80 00
 (1756943981.302803)  can0  7E0   [8]  07 23 00 02 F1 00 80 00
 (1756943981.321801)  can0  7E0   [8]  07 23 00 02 F1 80 80 00
 (1756943981.340803)  can0  7E0   [8]  07 23 00 02 F2 00 80 00
 (1756943981.359794)  can0  7E0   [8]  07 23 00 02 F2 80 80 00
 (1756943981.378798)  can0  7E0   [8]  07 23 00 02 F3 00 80 00
 (1756943981.397797)  can0  7E0   [8]  07 23 00 02 F3 80 80 00
 (1756943981.416797)  can0  7E0   [8]  07 23 00 02 F4 00 80 00
 (1756943981.435791)  can0  7E0   [8]  07 23 00 02 F4 80 80 00
 (1756943981.454786)  can0  7E0   [8]  07 23 00 02 F5 00 80 00
 (1756943981.473797)  can0  7E0   [8]  07 23 00 02 F5 80 80 00
 (1756943981.492790)  can0  7E0   [8]  07 23 00 02 F6 00 80 00
 (1756943981.511781)  can0  7E0   [8]  07 23 00 02 F6 80 80 00
 (1756943981.530784)  can0  7E0   [8]  07 23 00 02 F7 00 80 00
 (1756943981.549778)  can0  7E0   [8]  07 23 00 02 F7 80 80 00
 (1756943981.568779)  can0  7E0   [8]  07 23 00 02 F8 00 80 00
 (1756943981.587777)  can0  7E0   [8]  07 23 00 02 F8 80 80 00
 (1756943981.606772)  can0  7E0   [8]  07 23 00 02 F9 00 80 00
 (1756943981.625785)  can0  7E0   [8]  07 23 00 02 F9 80 80 00
 (1756943981.644764)  can0  7E0   [8]  07 23 00 02 FA 00 80 00
 (1756943981.663757)  can0  7E0   [8]  07 23 00 02 FA 80 80 00
 (1756943981.682774)  can0  7E0   [8]  07 23 00 02 FB 00 80 00
 (1756943981.701783)  can0  7E0   [8]  07 23 00 02 FB 80 80 00
 (1756943981.720769)  can0  7E0   [8]  07 23 00 02 FC 00 80 00
 (1756943981.739766)  can0  7E0   [8]  07 23 00 02 FC 80 80 00
 (1756943981.758765)  can0  7E0   [8]  07 23 00 02 FD 00 80 00
 (1756943981.777832)  can0  7E0   [8]  07 23 00 02 FD 80 80 00
 (1756943981.796758)  can0  7E0   [8]  07 23 00 02 FE 00 80 00
 (1756943981.815752)  can0  7E0   [8]  07 23 00 02 FE 80 80 00
 (1756943981.834757)  can0  7E0   [8]  07 23 00 02 FF 00 80 00
 (1756943981.853765)  can0  7E0   [8]  07 23 00 02 FF 80 80 00
 (1756943981.872753)  can0  7E0   [8]  07 23 00 03 00 00 80 00
 (1756943981.891737)  can0  7E0   [8]  07 23 00 03 00 80 80 00
 (1756943981.910751)  can0  7E0   [8]  07 23 00 03 01 00 80 00
 (1756943981.929762)  can0  7E0   [8]  07 23 00 03 01 80 80 00
 (1756943981.948745)  can0  7E0   [8]  07 23 00 03 02 00 80 00
 (1756943981.967741)  can0  7E0   [8]  07 23 00 03 02 80 80 00
 (1756943981.986744)  can0  7E0   [8]  07 23 00 03 03 00 80 00
 (1756943982.005733)  can0  7E0   [8]  07 23 00 03 03 80 80 00
 (1756943982.024730)  can0  7E0   [8]  07 23 00 03 04 00 80 00
 (1756943982.043734)  can0  7E0   [8]  07 23 00 03 04 80 80 00
 (1756943982.062732)  can0  7E0   [8]  07 23 00 03 05 00 80 00
 (1756943982.081736)  can0  7E0   [8]  07 23 00 03 05 80 80 00
 (1756943982.100729)  can0  7E0   [8]  07 23 00 03 06 00 80 00
 (1756943982.119731)  can0  7E0   [8]  07 23 00 03 06 80 80 00
 (1756943982.138729)  can0  7E0   [8]  07 23 00 03 07 00 80 00
 (1756943982.157725)  can0  7E0   [8]  07 23 00 03 07 80 80 00
 (1756943982.176717)  can0  7E0   [8]  07 23 00 03 08 00 80 00
 (1756943982.195720)  can0  7E0   [8]  07 23 00 03 08 80 80 00
 (1756943982.214710)  can0  7E0   [8]  07 23 00 03 09 00 80 00
 (1756943982.233711)  can0  7E0   [8]  07 23 00 03 09 80 80 00
 (1756943982.252709)  can0  7E0   [8]  07 23 00 03 0A 00 80 00
 (1756943982.271709)  can0  7E0   [8]  07 23 00 03 0A 80 80 00
 (1756943982.290708)  can0  7E0   [8]  07 23 00 03 0B 00 80 00
 (1756943982.309702)  can0  7E0   [8]  07 23 00 03 0B 80 80 00
 (1756943982.328713)  can0  7E0   [8]  07 23 00 03 0C 00 80 00
 (1756943982.347705)  can0  7E0   [8]  07 23 00 03 0C 80 80 00
 (1756943982.366696)  can0  7E0   [8]  07 23 00 03 0D 00 80 00
 (1756943982.385698)  can0  7E0   [8]  07 23 00 03 0D 80 80 00
 (1756943982.404702)  can0  7E0   [8]  07 23 00 03 0E 00 80 00
 (1756943982.423689)  can0  7E0   [8]  07 23 00 03 0E 80 80 00
 (1756943982.442689)  can0  7E0   [8]  07 23 00 03 0F 00 80 00
 (1756943982.461700)  can0  7E0   [8]  07 23 00 03 0F 80 80 00
 (1756943982.480686)  can0  7E0   [8]  07 23 00 03 10 00 80 00
 (1756943982.499683)  can0  7E0   [8]  07 23 00 03 10 80 80 00
 (1756943982.518681)  can0  7E0   [8]  07 23 00 03 11 00 80 00
 (1756943982.537690)  can0  7E0   [8]  07 23 00 03 11 80 80 00
 (1756943982.556688)  can0  7E0   [8]  07 23 00 03 12 00 80 00
 (1756943982.575686)  can0  7E0   [8]  07 23 00 03 12 80 80 00
 (1756943982.594674)  can0  7E0   [8]  07 23 00 03 13 00 80 00
 (1756943982.613684)  can0  7E0   [8]  07 23 00 03 13 80 80 00
 (1756943982.632678)  can0  7E0   [8]  07 23 00 03 14 00 80 00
 (1756943982.651675)  can0  7E0   [8]  07 23 00 03 14 80 80 00
 (1756943982.670664)  can0  7E0   [8]  07 23 00 03 15 00 80 00
 (1756943982.689684)  can0  7E0   [8]  07 23 00 03 15 80 80 00
 (1756943982.708662)  can0  7E0   [8]  07 23 00 03 16 00 80 00
 (1756943982.727663)  can0  7E0   [8]  07 23 00 03 16 80 80 00
 (1756943982.746665)  can0  7E0   [8]  07 23 00 03 17 00 80 00
 (1756943982.765664)  can0  7E0   [8]  07 23 00 03 17 80 80 00
 (1756943982.784667)  can0  7E0   [8]  07 23 00 03 18 00 80 00
 (1756943982.803671)  can0  7E0   [8]  07 23 00 03 18 80 80 00
 (1756943982.822653)  can0  7E0   [8]  07 23 00 03 19 00 80 00
 (1756943982.841651)  can0  7E0   [8]  07 23 00 03 19 80 80 00
 (1756943982.860648)  can0  7E0   [8]  07 23 00 03 1A 00 80 00
 (1756943982.879649)  can0  7E0   [8]  07 23 00 03 1A 80 80 00
 (1756943982.898642)  can0  7E0   [8]  07 23 00 03 1B 00 80 00
 (1756943982.917639)  can0  7E0   [8]  07 23 00 03 1B 80 80 00
 (1756943982.936645)  can0  7E0   [8]  07 23 00 03 1C 00 80 00
 (1756943982.955643)  can0  7E0   [8]  07 23 00 03 1C 80 80 00
 (1756943982.974641)  can0  7E0   [8]  07 23 00 03 1D 00 80 00
 (1756943982.993636)  can0  7E0   [8]  07 23 00 03 1D 80 80 00
 (1756943983.012632)  can0  7E0   [8]  07 23 00 03 1E 00 80 00
 (1756943983.031624)  can0  7E0   [8]  07 23 00 03 1E 80 80 00
 (1756943983.050636)  can0  7E0   [8]  07 23 00 03 1F 00 80 00
 (1756943983.069637)  can0  7E0   [8]  07 23 00 03 1F 80 80 00
 (1756943983.088637)  can0  7E0   [8]  07 23 00 03 20 00 80 00
 (1756943983.107628)  can0  7E0   [8]  07 23 00 03 20 80 80 00
 (1756943983.126618)  can0  7E0   [8]  07 23 00 03 21 00 80 00
 (1756943983.145619)  can0  7E0   [8]  07 23 00 03 21 80 80 00
 (1756943983.164628)  can0  7E0   [8]  07 23 00 03 22 00 80 00
 (1756943983.183627)  can0  7E0   [8]  07 23 00 03 22 80 80 00
 (1756943983.202614)  can0  7E0   [8]  07 23 00 03 23 00 80 00
 (1756943983.221620)  can0  7E0   [8]  07 23 00 03 23 80 80 00
 (1756943983.240621)  can0  7E0   [8]  07 23 00 03 24 00 80 00
 (1756943983.259610)  can0  7E0   [8]  07 23 00 03 24 80 80 00
 (1756943983.278608)  can0  7E0   [8]  07 23 00 03 25 00 80 00
 (1756943983.297613)  can0  7E0   [8]  07 23 00 03 25 80 80 00
 (1756943983.316609)  can0  7E0   [8]  07 23 00 03 26 00 80 00
 (1756943983.335600)  can0  7E0   [8]  07 23 00 03 26 80 80 00
 (1756943983.354600)  can0  7E0   [8]  07 23 00 03 27 00 80 00
 (1756943983.373609)  can0  7E0   [8]  07 23 00 03 27 80 80 00
 (1756943983.392601)  can0  7E0   [8]  07 23 00 03 28 00 80 00
 (1756943983.411600)  can0  7E0   [8]  07 23 00 03 28 80 80 00
 (1756943983.430592)  can0  7E0   [8]  07 23 00 03 29 00 80 00
 (1756943983.449591)  can0  7E0   [8]  07 23 00 03 29 80 80 00
 (1756943983.468589)  can0  7E0   [8]  07 23 00 03 2A 00 80 00
 (1756943983.487590)  can0  7E0   [8]  07 23 00 03 2A 80 80 00
 (1756943983.506590)  can0  7E0   [8]  07 23 00 03 2B 00 80 00
 (1756943983.525584)  can0  7E0   [8]  07 23 00 03 2B 80 80 00
 (1756943983.544583)  can0  7E0   [8]  07 23 00 03 2C 00 80 00
 (1756943983.563586)  can0  7E0   [8]  07 23 00 03 2C 80 80 00
 (1756943983.582584)  can0  7E0   [8]  07 23 00 03 2D 00 80 00
 (1756943983.601583)  can0  7E0   [8]  07 23 00 03 2D 80 80 00
 (1756943983.620581)  can0  7E0   [8]  07 23 00 03 2E 00 80 00
 (1756943983.639578)  can0  7E0   [8]  07 23 00 03 2E 80 80 00
 (1756943983.658573)  can0  7E0   [8]  07 23 00 03 2F 00 80 00
 (1756943983.677573)  can0  7E0   [8]  07 23 00 03 2F 80 80 00
 (1756943983.696569)  can0  7E0   [8]  07 23 00 03 30 00 80 00
 (1756943983.715568)  can0  7E0   [8]  07 23 00 03 30 80 80 00
 (1756943983.734569)  can0  7E0   [8]  07 23 00 03 31 00 80 00
 (1756943983.753569)  can0  7E0   [8]  07 23 00 03 31 80 80 00
 (1756943983.772562)  can0  7E0   [8]  07 23 00 03 32 00 80 00
 (1756943983.791568)  can0  7E0   [8]  07 23 00 03 32 80 80 00
 (1756943983.810560)  can0  7E0   [8]  07 23 00 03 33 00 80 00
 (1756943983.829555)  can0  7E0   [8]  07 23 00 03 33 80 80 00
 (1756943983.848556)  can0  7E0   [8]  07 23 00 03 34 00 80 00
 (1756943983.867551)  can0  7E0   [8]  07 23 00 03 34 80 80 00
 (1756943983.886546)  can0  7E0   [8]  07 23 00 03 35 00 80 00
 (1756943983.905552)  can0  7E0   [8]  07 23 00 03 35 80 80 00
 (1756943983.924546)  can0  7E0   [8]  07 23 00 03 36 00 80 00
 (1756943983.943545)  can0  7E0   [8]  07 23 00 03 36 80 80 00
 (1756943983.962539)  can0  7E0   [8]  07 23 00 03 37 00 80 00
 (1756943983.981536)  can0  7E0   [8]  07 23 00 03 37 80 80 00
 (1756943984.000541)  can0  7E0   [8]  07 23 00 03 38 00 80 00
 (1756943984.019543)  can0  7E0   [8]  07 23 00 03 38 80 80 00
 (1756943984.038534)  can0  7E0   [8]  07 23 00 03 39 00 80 00
 (1756943984.057534)  can0  7E0   [8]  07 23 00 03 39 80 80 00
 (1756943984.076531)  can0  7E0   [8]  07 23 00 03 3A 00 80 00
 (1756943984.095522)  can0  7E0   [8]  07 23 00 03 3A 80 80 00
 (1756943984.114530)  can0  7E0   [8]  07 23 00 03 3B 00 80 00
 (1756943984.133524)  can0  7E0   [8]  07 23 00 03 3B 80 80 00
 (1756943984.152528)  can0  7E0   [8]  07 23 00 03 3C 00 80 00
 (1756943984.171522)  can0  7E0   [8]  07 23 00 03 3C 80 80 00
 (1756943984.190515)  can0  7E0   [8]  07 23 00 03 3D 00 80 00
 (1756943984.209526)  can0  7E0   [8]  07 23 00 03 3D 80 80 00
 (1756943984.228522)  can0  7E0   [8]  07 23 00 03 3E 00 80 00
 (1756943984.247533)  can0  7E0   [8]  07 23 00 03 3E 80 80 00
 (1756943984.266532)  can0  7E0   [8]  07 23 00 03 3F 00 80 00
 (1756943984.285525)  can0  7E0   [8]  07 23 00 03 3F 80 80 00
 (1756943984.304528)  can0  7E0   [8]  07 23 00 03 40 00 80 00
 (1756943984.323526)  can0  7E0   [8]  07 23 00 03 40 80 80 00
 (1756943984.342521)  can0  7E0   [8]  07 23 00 03 41 00 80 00
 (1756943984.361515)  can0  7E0   [8]  07 23 00 03 41 80 80 00
 (1756943984.380514)  can0  7E0   [8]  07 23 00 03 42 00 80 00
 (1756943984.399513)  can0  7E0   [8]  07 23 00 03 42 80 80 00
 (1756943984.418516)  can0  7E0   [8]  07 23 00 03 43 00 80 00
 (1756943984.437517)  can0  7E0   [8]  07 23 00 03 43 80 80 00
 (1756943984.456521)  can0  7E0   [8]  07 23 00 03 44 00 80 00
 (1756943984.475500)  can0  7E0   [8]  07 23 00 03 44 80 80 00
 (1756943984.494507)  can0  7E0   [8]  07 23 00 03 45 00 80 00
 (1756943984.513497)  can0  7E0   [8]  07 23 00 03 45 80 80 00
 (1756943984.532499)  can0  7E0   [8]  07 23 00 03 46 00 80 00
 (1756943984.551495)  can0  7E0   [8]  07 23 00 03 46 80 80 00
 (1756943984.570498)  can0  7E0   [8]  07 23 00 03 47 00 80 00
 (1756943984.589493)  can0  7E0   [8]  07 23 00 03 47 80 80 00
 (1756943984.608483)  can0  7E0   [8]  07 23 00 03 48 00 80 00
 (1756943984.627495)  can0  7E0   [8]  07 23 00 03 48 80 80 00
 (1756943984.646499)  can0  7E0   [8]  07 23 00 03 49 00 80 00
 (1756943984.665489)  can0  7E0   [8]  07 23 00 03 49 80 80 00
 (1756943984.684484)  can0  7E0   [8]  07 23 00 03 4A 00 80 00
 (1756943984.703484)  can0  7E0   [8]  07 23 00 03 4A 80 80 00
 (1756943984.722480)  can0  7E0   [8]  07 23 00 03 4B 00 80 00
 (1756943984.741481)  can0  7E0   [8]  07 23 00 03 4B 80 80 00
 (1756943984.760487)  can0  7E0   [8]  07 23 00 03 4C 00 80 00
 (1756943984.779479)  can0  7E0   [8]  07 23 00 03 4C 80 80 00
 (1756943984.798474)  can0  7E0   [8]  07 23 00 03 4D 00 80 00
 (1756943984.817467)  can0  7E0   [8]  07 23 00 03 4D 80 80 00
 (1756943984.836471)  can0  7E0   [8]  07 23 00 03 4E 00 80 00
 (1756943984.855472)  can0  7E0   [8]  07 23 00 03 4E 80 80 00
 (1756943984.874476)  can0  7E0   [8]  07 23 00 03 4F 00 80 00
 (1756943984.893481)  can0  7E0   [8]  07 23 00 03 4F 80 80 00
 (1756943984.912459)  can0  7E0   [8]  07 23 00 03 50 00 80 00
 (1756943984.931481)  can0  7E0   [8]  07 23 00 03 50 80 80 00
 (1756943984.950448)  can0  7E0   [8]  07 23 00 03 51 00 80 00
 (1756943984.969444)  can0  7E0   [8]  07 23 00 03 51 80 80 00
 (1756943984.988455)  can0  7E0   [8]  07 23 00 03 52 00 80 00
 (1756943985.007446)  can0  7E0   [8]  07 23 00 03 52 80 80 00
 (1756943985.026445)  can0  7E0   [8]  07 23 00 03 53 00 80 00
 (1756943985.045461)  can0  7E0   [8]  07 23 00 03 53 80 80 00
 (1756943985.064462)  can0  7E0   [8]  07 23 00 03 54 00 80 00
 (1756943985.083454)  can0  7E0   [8]  07 23 00 03 54 80 80 00
 (1756943985.102453)  can0  7E0   [8]  07 23 00 03 55 00 80 00
 (1756943985.121435)  can0  7E0   [8]  07 23 00 03 55 80 80 00
 (1756943985.140441)  can0  7E0   [8]  07 23 00 03 56 00 80 00
 (1756943985.159438)  can0  7E0   [8]  07 23 00 03 56 80 80 00
 (1756943985.178435)  can0  7E0   [8]  07 23 00 03 57 00 80 00
 (1756943985.197436)  can0  7E0   [8]  07 23 00 03 57 80 80 00
 (1756943985.216443)  can0  7E0   [8]  07 23 00 03 58 00 80 00
 (1756943985.235439)  can0  7E0   [8]  07 23 00 03 58 80 80 00
 (1756943985.254441)  can0  7E0   [8]  07 23 00 03 59 00 80 00
 (1756943985.273438)  can0  7E0   [8]  07 23 00 03 59 80 80 00
 (1756943985.292437)  can0  7E0   [8]  07 23 00 03 5A 00 80 00
 (1756943985.311424)  can0  7E0   [8]  07 23 00 03 5A 80 80 00
 (1756943985.330430)  can0  7E0   [8]  07 23 00 03 5B 00 80 00
 (1756943985.349420)  can0  7E0   [8]  07 23 00 03 5B 80 80 00
 (1756943985.368428)  can0  7E0   [8]  07 23 00 03 5C 00 80 00
 (1756943985.387422)  can0  7E0   [8]  07 23 00 03 5C 80 80 00
 (1756943985.406420)  can0  7E0   [8]  07 23 00 03 5D 00 80 00
 (1756943985.425418)  can0  7E0   [8]  07 23 00 03 5D 80 80 00
 (1756943985.444417)  can0  7E0   [8]  07 23 00 03 5E 00 80 00
 (1756943985.463423)  can0  7E0   [8]  07 23 00 03 5E 80 80 00
 (1756943985.482420)  can0  7E0   [8]  07 23 00 03 5F 00 80 00
 (1756943985.501419)  can0  7E0   [8]  07 23 00 03 5F 80 80 00
 (1756943985.520409)  can0  7E0   [8]  07 23 00 03 60 00 80 00
 (1756943985.539406)  can0  7E0   [8]  07 23 00 03 60 80 80 00
 (1756943985.558406)  can0  7E0   [8]  07 23 00 03 61 00 80 00
 (1756943985.577399)  can0  7E0   [8]  07 23 00 03 61 80 80 00
 (1756943985.596410)  can0  7E0   [8]  07 23 00 03 62 00 80 00
 (1756943985.615402)  can0  7E0   [8]  07 23 00 03 62 80 80 00
 (1756943985.634391)  can0  7E0   [8]  07 23 00 03 63 00 80 00
 (1756943985.653395)  can0  7E0   [8]  07 23 00 03 63 80 80 00
 (1756943985.672391)  can0  7E0   [8]  07 23 00 03 64 00 80 00
 (1756943985.691395)  can0  7E0   [8]  07 23 00 03 64 80 80 00
 (1756943985.710400)  can0  7E0   [8]  07 23 00 03 65 00 80 00
 (1756943985.729384)  can0  7E0   [8]  07 23 00 03 65 80 80 00
 (1756943985.748377)  can0  7E0   [8]  07 23 00 03 66 00 80 00
 (1756943985.767381)  can0  7E0   [8]  07 23 00 03 66 80 80 00
 (1756943985.786381)  can0  7E0   [8]  07 23 00 03 67 00 80 00
 (1756943985.805382)  can0  7E0   [8]  07 23 00 03 67 80 80 00
 (1756943985.824378)  can0  7E0   [8]  07 23 00 03 68 00 80 00
 (1756943985.843373)  can0  7E0   [8]  07 23 00 03 68 80 80 00
 (1756943985.862374)  can0  7E0   [8]  07 23 00 03 69 00 80 00
 (1756943985.881378)  can0  7E0   [8]  07 23 00 03 69 80 80 00
 (1756943985.900380)  can0  7E0   [8]  07 23 00 03 6A 00 80 00
 (1756943985.919377)  can0  7E0   [8]  07 23 00 03 6A 80 80 00
 (1756943985.938364)  can0  7E0   [8]  07 23 00 03 6B 00 80 00
 (1756943985.957361)  can0  7E0   [8]  07 23 00 03 6B 80 80 00
 (1756943985.976370)  can0  7E0   [8]  07 23 00 03 6C 00 80 00
 (1756943985.995361)  can0  7E0   [8]  07 23 00 03 6C 80 80 00
 (1756943986.014356)  can0  7E0   [8]  07 23 00 03 6D 00 80 00
 (1756943986.033354)  can0  7E0   [8]  07 23 00 03 6D 80 80 00
 (1756943986.052356)  can0  7E0   [8]  07 23 00 03 6E 00 80 00
 (1756943986.071354)  can0  7E0   [8]  07 23 00 03 6E 80 80 00
 (1756943986.090355)  can0  7E0   [8]  07 23 00 03 6F 00 80 00
 (1756943986.109350)  can0  7E0   [8]  07 23 00 03 6F 80 80 00
 (1756943986.128354)  can0  7E0   [8]  07 23 00 03 70 00 80 00
 (1756943986.147350)  can0  7E0   [8]  07 23 00 03 70 80 80 00
 (1756943986.166339)  can0  7E0   [8]  07 23 00 03 71 00 80 00
 (1756943986.185343)  can0  7E0   [8]  07 23 00 03 71 80 80 00
 (1756943986.204338)  can0  7E0   [8]  07 23 00 03 72 00 80 00
 (1756943986.223341)  can0  7E0   [8]  07 23 00 03 72 80 80 00
 (1756943986.242337)  can0  7E0   [8]  07 23 00 03 73 00 80 00
 (1756943986.261337)  can0  7E0   [8]  07 23 00 03 73 80 80 00
 (1756943986.280330)  can0  7E0   [8]  07 23 00 03 74 00 80 00
 (1756943986.299337)  can0  7E0   [8]  07 23 00 03 74 80 80 00
 (1756943986.318335)  can0  7E0   [8]  07 23 00 03 75 00 80 00
 (1756943986.337339)  can0  7E0   [8]  07 23 00 03 75 80 80 00
 (1756943986.356313)  can0  7E0   [8]  07 23 00 03 76 00 80 00
 (1756943986.375321)  can0  7E0   [8]  07 23 00 03 76 80 80 00
 (1756943986.394322)  can0  7E0   [8]  07 23 00 03 77 00 80 00
 (1756943986.413319)  can0  7E0   [8]  07 23 00 03 77 80 80 00
 (1756943986.432326)  can0  7E0   [8]  07 23 00 03 78 00 80 00
 (1756943986.451317)  can0  7E0   [8]  07 23 00 03 78 80 80 00
 (1756943986.470314)  can0  7E0   [8]  07 23 00 03 79 00 80 00
 (1756943986.489314)  can0  7E0   [8]  07 23 00 03 79 80 80 00
 (1756943986.508313)  can0  7E0   [8]  07 23 00 03 7A 00 80 00
 (1756943986.527311)  can0  7E0   [8]  07 23 00 03 7A 80 80 00
 (1756943986.546322)  can0  7E0   [8]  07 23 00 03 7B 00 80 00
 (1756943986.565303)  can0  7E0   [8]  07 23 00 03 7B 80 80 00
 (1756943986.584309)  can0  7E0   [8]  07 23 00 03 7C 00 80 00
 (1756943986.603295)  can0  7E0   [8]  07 23 00 03 7C 80 80 00
 (1756943986.622300)  can0  7E0   [8]  07 23 00 03 7D 00 80 00
 (1756943986.641300)  can0  7E0   [8]  07 23 00 03 7D 80 80 00
 (1756943986.660295)  can0  7E0   [8]  07 23 00 03 7E 00 80 00
 (1756943986.679292)  can0  7E0   [8]  07 23 00 03 7E 80 80 00
 (1756943986.698295)  can0  7E0   [8]  07 23 00 03 7F 00 80 00
 (1756943986.717292)  can0  7E0   [8]  07 23 00 03 7F 80 80 00
 (1756943986.736296)  can0  7E0   [8]  07 23 00 03 80 00 80 00
 (1756943986.755298)  can0  7E0   [8]  07 23 00 03 80 80 80 00
 (1756943986.774289)  can0  7E0   [8]  07 23 00 03 81 00 80 00
 (1756943986.793281)  can0  7E0   [8]  07 23 00 03 81 80 80 00
 (1756943986.812285)  can0  7E0   [8]  07 23 00 03 82 00 80 00
 (1756943986.831285)  can0  7E0   [8]  07 23 00 03 82 80 80 00
 (1756943986.850280)  can0  7E0   [8]  07 23 00 03 83 00 80 00
 (1756943986.869277)  can0  7E0   [8]  07 23 00 03 83 80 80 00
 (1756943986.888275)  can0  7E0   [8]  07 23 00 03 84 00 80 00
 (1756943986.907273)  can0  7E0   [8]  07 23 00 03 84 80 80 00
 (1756943986.926270)  can0  7E0   [8]  07 23 00 03 85 00 80 00
 (1756943986.945282)  can0  7E0   [8]  07 23 00 03 85 80 80 00
 (1756943986.964270)  can0  7E0   [8]  07 23 00 03 86 00 80 00
 (1756943986.983269)  can0  7E0   [8]  07 23 00 03 86 80 80 00
 (1756943987.002261)  can0  7E0   [8]  07 23 00 03 87 00 80 00
 (1756943987.021259)  can0  7E0   [8]  07 23 00 03 87 80 80 00
 (1756943987.040258)  can0  7E0   [8]  07 23 00 03 88 00 80 00
 (1756943987.059263)  can0  7E0   [8]  07 23 00 03 88 80 80 00
 (1756943987.078252)  can0  7E0   [8]  07 23 00 03 89 00 80 00
 (1756943987.097258)  can0  7E0   [8]  07 23 00 03 89 80 80 00
 (1756943987.116245)  can0  7E0   [8]  07 23 00 03 8A 00 80 00
 (1756943987.135248)  can0  7E0   [8]  07 23 00 03 8A 80 80 00
 (1756943987.154251)  can0  7E0   [8]  07 23 00 03 8B 00 80 00
 (1756943987.173250)  can0  7E0   [8]  07 23 00 03 8B 80 80 00
 (1756943987.192250)  can0  7E0   [8]  07 23 00 03 8C 00 80 00
 (1756943987.211241)  can0  7E0   [8]  07 23 00 03 8C 80 80 00
 (1756943987.230243)  can0  7E0   [8]  07 23 00 03 8D 00 80 00
 (1756943987.249237)  can0  7E0   [8]  07 23 00 03 8D 80 80 00
 (1756943987.268233)  can0  7E0   [8]  07 23 00 03 8E 00 80 00
 (1756943987.287232)  can0  7E0   [8]  07 23 00 03 8E 80 80 00
 (1756943987.306236)  can0  7E0   [8]  07 23 00 03 8F 00 80 00
 (1756943987.325236)  can0  7E0   [8]  07 23 00 03 8F 80 80 00
 (1756943987.344230)  can0  7E0   [8]  07 23 00 03 90 00 80 00
 (1756943987.363230)  can0  7E0   [8]  07 23 00 03 90 80 80 00
 (1756943987.382234)  can0  7E0   [8]  07 23 00 03 91 00 80 00
 (1756943987.401237)  can0  7E0   [8]  07 23 00 03 91 80 80 00
 (1756943987.420225)  can0  7E0   [8]  07 23 00 03 92 00 80 00
 (1756943987.439218)  can0  7E0   [8]  07 23 00 03 92 80 80 00
 (1756943987.458217)  can0  7E0   [8]  07 23 00 03 93 00 80 00
 (1756943987.477214)  can0  7E0   [8]  07 23 00 03 93 80 80 00
 (1756943987.496217)  can0  7E0   [8]  07 23 00 03 94 00 80 00
 (1756943987.515208)  can0  7E0   [8]  07 23 00 03 94 80 80 00
 (1756943987.534208)  can0  7E0   [8]  07 23 00 03 95 00 80 00
 (1756943987.553209)  can0  7E0   [8]  07 23 00 03 95 80 80 00
 (1756943987.572204)  can0  7E0   [8]  07 23 00 03 96 00 80 00
 (1756943987.591216)  can0  7E0   [8]  07 23 00 03 96 80 80 00
 (1756943987.610206)  can0  7E0   [8]  07 23 00 03 97 00 80 00
 (1756943987.629197)  can0  7E0   [8]  07 23 00 03 97 80 80 00
 (1756943987.648203)  can0  7E0   [8]  07 23 00 03 98 00 80 00
 (1756943987.667204)  can0  7E0   [8]  07 23 00 03 98 80 80 00
 (1756943987.686198)  can0  7E0   [8]  07 23 00 03 99 00 80 00
 (1756943987.705193)  can0  7E0   [8]  07 23 00 03 99 80 80 00
 (1756943987.724197)  can0  7E0   [8]  07 23 00 03 9A 00 80 00
 (1756943987.743186)  can0  7E0   [8]  07 23 00 03 9A 80 80 00
 (1756943987.762196)  can0  7E0   [8]  07 23 00 03 9B 00 80 00
 (1756943987.781196)  can0  7E0   [8]  07 23 00 03 9B 80 80 00
 (1756943987.800191)  can0  7E0   [8]  07 23 00 03 9C 00 80 00
 (1756943987.819189)  can0  7E0   [8]  07 23 00 03 9C 80 80 00
 (1756943987.838178)  can0  7E0   [8]  07 23 00 03 9D 00 80 00
 (1756943987.857177)  can0  7E0   [8]  07 23 00 03 9D 80 80 00
 (1756943987.876171)  can0  7E0   [8]  07 23 00 03 9E 00 80 00
 (1756943987.895172)  can0  7E0   [8]  07 23 00 03 9E 80 80 00
 (1756943987.914178)  can0  7E0   [8]  07 23 00 03 9F 00 80 00
 (1756943987.933177)  can0  7E0   [8]  07 23 00 03 9F 80 80 00
 (1756943987.952169)  can0  7E0   [8]  07 23 00 03 A0 00 80 00
 (1756943987.971166)  can0  7E0   [8]  07 23 00 03 A0 80 80 00
 (1756943987.990168)  can0  7E0   [8]  07 23 00 03 A1 00 80 00
 (1756943988.009175)  can0  7E0   [8]  07 23 00 03 A1 80 80 00
 (1756943988.028173)  can0  7E0   [8]  07 23 00 03 A2 00 80 00
 (1756943988.047160)  can0  7E0   [8]  07 23 00 03 A2 80 80 00
 (1756943988.066159)  can0  7E0   [8]  07 23 00 03 A3 00 80 00
 (1756943988.085154)  can0  7E0   [8]  07 23 00 03 A3 80 80 00
 (1756943988.104163)  can0  7E0   [8]  07 23 00 03 A4 00 80 00
 (1756943988.123153)  can0  7E0   [8]  07 23 00 03 A4 80 80 00
 (1756943988.142151)  can0  7E0   [8]  07 23 00 03 A5 00 80 00
 (1756943988.161150)  can0  7E0   [8]  07 23 00 03 A5 80 80 00
 (1756943988.180151)  can0  7E0   [8]  07 23 00 03 A6 00 80 00
 (1756943988.199148)  can0  7E0   [8]  07 23 00 03 A6 80 80 00
 (1756943988.218153)  can0  7E0   [8]  07 23 00 03 A7 00 80 00
 (1756943988.237144)  can0  7E0   [8]  07 23 00 03 A7 80 80 00
 (1756943988.256141)  can0  7E0   [8]  07 23 00 03 A8 00 80 00
 (1756943988.275139)  can0  7E0   [8]  07 23 00 03 A8 80 80 00
 (1756943988.294142)  can0  7E0   [8]  07 23 00 03 A9 00 80 00
 (1756943988.313138)  can0  7E0   [8]  07 23 00 03 A9 80 80 00
 (1756943988.332137)  can0  7E0   [8]  07 23 00 03 AA 00 80 00
 (1756943988.351132)  can0  7E0   [8]  07 23 00 03 AA 80 80 00
 (1756943988.370126)  can0  7E0   [8]  07 23 00 03 AB 00 80 00
 (1756943988.389126)  can0  7E0   [8]  07 23 00 03 AB 80 80 00
 (1756943988.408125)  can0  7E0   [8]  07 23 00 03 AC 00 80 00
 (1756943988.427131)  can0  7E0   [8]  07 23 00 03 AC 80 80 00
 (1756943988.446135)  can0  7E0   [8]  07 23 00 03 AD 00 80 00
 (1756943988.465119)  can0  7E0   [8]  07 23 00 03 AD 80 80 00
 (1756943988.484117)  can0  7E0   [8]  07 23 00 03 AE 00 80 00
 (1756943988.503110)  can0  7E0   [8]  07 23 00 03 AE 80 80 00
 (1756943988.522117)  can0  7E0   [8]  07 23 00 03 AF 00 80 00
 (1756943988.541111)  can0  7E0   [8]  07 23 00 03 AF 80 80 00
 (1756943988.560119)  can0  7E0   [8]  07 23 00 03 B0 00 80 00
 (1756943988.579110)  can0  7E0   [8]  07 23 00 03 B0 80 80 00
 (1756943988.598105)  can0  7E0   [8]  07 23 00 03 B1 00 80 00
 (1756943988.617100)  can0  7E0   [8]  07 23 00 03 B1 80 80 00
 (1756943988.636113)  can0  7E0   [8]  07 23 00 03 B2 00 80 00
 (1756943988.655112)  can0  7E0   [8]  07 23 00 03 B2 80 80 00
 (1756943988.674102)  can0  7E0   [8]  07 23 00 03 B3 00 80 00
 (1756943988.693097)  can0  7E0   [8]  07 23 00 03 B3 80 80 00
 (1756943988.712096)  can0  7E0   [8]  07 23 00 03 B4 00 80 00
 (1756943988.731092)  can0  7E0   [8]  07 23 00 03 B4 80 80 00
 (1756943988.750092)  can0  7E0   [8]  07 23 00 03 B5 00 80 00
 (1756943988.769096)  can0  7E0   [8]  07 23 00 03 B5 80 80 00
 (1756943988.788092)  can0  7E0   [8]  07 23 00 03 B6 00 80 00
 (1756943988.807087)  can0  7E0   [8]  07 23 00 03 B6 80 80 00
 (1756943988.826085)  can0  7E0   [8]  07 23 00 03 B7 00 80 00
 (1756943988.845087)  can0  7E0   [8]  07 23 00 03 B7 80 80 00
 (1756943988.864088)  can0  7E0   [8]  07 23 00 03 B8 00 80 00
 (1756943988.883088)  can0  7E0   [8]  07 23 00 03 B8 80 80 00
 (1756943988.902081)  can0  7E0   [8]  07 23 00 03 B9 00 80 00
 (1756943988.921067)  can0  7E0   [8]  07 23 00 03 B9 80 80 00
 (1756943988.940070)  can0  7E0   [8]  07 23 00 03 BA 00 80 00
 (1756943988.959063)  can0  7E0   [8]  07 23 00 03 BA 80 80 00
 (1756943988.978069)  can0  7E0   [8]  07 23 00 03 BB 00 80 00
 (1756943988.997062)  can0  7E0   [8]  07 23 00 03 BB 80 80 00
 (1756943989.016063)  can0  7E0   [8]  07 23 00 03 BC 00 80 00
 (1756943989.035057)  can0  7E0   [8]  07 23 00 03 BC 80 80 00
 (1756943989.054068)  can0  7E0   [8]  07 23 00 03 BD 00 80 00
 (1756943989.073065)  can0  7E0   [8]  07 23 00 03 BD 80 80 00
 (1756943989.092057)  can0  7E0   [8]  07 23 00 03 BE 00 80 00
 (1756943989.111051)  can0  7E0   [8]  07 23 00 03 BE 80 80 00
 (1756943989.130054)  can0  7E0   [8]  07 23 00 03 BF 00 80 00
 (1756943989.149048)  can0  7E0   [8]  07 23 00 03 BF 80 80 00
 (1756943989.168052)  can0  7E0   [8]  07 23 00 03 C0 00 80 00
 (1756943989.187042)  can0  7E0   [8]  07 23 00 03 C0 80 80 00
 (1756943989.206045)  can0  7E0   [8]  07 23 00 03 C1 00 80 00
 (1756943989.225039)  can0  7E0   [8]  07 23 00 03 C1 80 80 00
 (1756943989.244044)  can0  7E0   [8]  07 23 00 03 C2 00 80 00
 (1756943989.263050)  can0  7E0   [8]  07 23 00 03 C2 80 80 00
 (1756943989.282043)  can0  7E0   [8]  07 23 00 03 C3 00 80 00
 (1756943989.301031)  can0  7E0   [8]  07 23 00 03 C3 80 80 00
 (1756943989.320033)  can0  7E0   [8]  07 23 00 03 C4 00 80 00
 (1756943989.339033)  can0  7E0   [8]  07 23 00 03 C4 80 80 00
 (1756943989.358031)  can0  7E0   [8]  07 23 00 03 C5 00 80 00
 (1756943989.377024)  can0  7E0   [8]  07 23 00 03 C5 80 80 00
 (1756943989.396023)  can0  7E0   [8]  07 23 00 03 C6 00 80 00
 (1756943989.415021)  can0  7E0   [8]  07 23 00 03 C6 80 80 00
 (1756943989.434025)  can0  7E0   [8]  07 23 00 03 C7 00 80 00
 (1756943989.453022)  can0  7E0   [8]  07 23 00 03 C7 80 80 00
 (1756943989.472027)  can0  7E0   [8]  07 23 00 03 C8 00 80 00
 (1756943989.491015)  can0  7E0   [8]  07 23 00 03 C8 80 80 00
 (1756943989.510018)  can0  7E0   [8]  07 23 00 03 C9 00 80 00
 (1756943989.529011)  can0  7E0   [8]  07 23 00 03 C9 80 80 00
 (1756943989.548008)  can0  7E0   [8]  07 23 00 03 CA 00 80 00
 (1756943989.567006)  can0  7E0   [8]  07 23 00 03 CA 80 80 00
 (1756943989.586007)  can0  7E0   [8]  07 23 00 03 CB 00 80 00
 (1756943989.604997)  can0  7E0   [8]  07 23 00 03 CB 80 80 00
 (1756943989.624009)  can0  7E0   [8]  07 23 00 03 CC 00 80 00
 (1756943989.642997)  can0  7E0   [8]  07 23 00 03 CC 80 80 00
 (1756943989.661997)  can0  7E0   [8]  07 23 00 03 CD 00 80 00
 (1756943989.681006)  can0  7E0   [8]  07 23 00 03 CD 80 80 00
 (1756943989.700003)  can0  7E0   [8]  07 23 00 03 CE 00 80 00
 (1756943989.718996)  can0  7E0   [8]  07 23 00 03 CE 80 80 00
 (1756943989.737992)  can0  7E0   [8]  07 23 00 03 CF 00 80 00
 (1756943989.756978)  can0  7E0   [8]  07 23 00 03 CF 80 80 00
 (1756943989.775991)  can0  7E0   [8]  07 23 00 03 D0 00 80 00
 (1756943989.794989)  can0  7E0   [8]  07 23 00 03 D0 80 80 00
 (1756943989.813987)  can0  7E0   [8]  07 23 00 03 D1 00 80 00
 (1756943989.832979)  can0  7E0   [8]  07 23 00 03 D1 80 80 00
 (1756943989.851975)  can0  7E0   [8]  07 23 00 03 D2 00 80 00
 (1756943989.870975)  can0  7E0   [8]  07 23 00 03 D2 80 80 00
 (1756943989.889978)  can0  7E0   [8]  07 23 00 03 D3 00 80 00
 (1756943989.908983)  can0  7E0   [8]  07 23 00 03 D3 80 80 00
 (1756943989.927978)  can0  7E0   [8]  07 23 00 03 D4 00 80 00
 (1756943989.947004)  can0  7E0   [8]  07 23 00 03 D4 80 80 00
 (1756943989.965977)  can0  7E0   [8]  07 23 00 03 D5 00 80 00
 (1756943989.984994)  can0  7E0   [8]  07 23 00 03 D5 80 80 00
 (1756943990.003965)  can0  7E0   [8]  07 23 00 03 D6 00 80 00
 (1756943990.022964)  can0  7E0   [8]  07 23 00 03 D6 80 80 00
 (1756943990.041963)  can0  7E0   [8]  07 23 00 03 D7 00 80 00
 (1756943990.060988)  can0  7E0   [8]  07 23 00 03 D7 80 80 00
 (1756943990.079953)  can0  7E0   [8]  07 23 00 03 D8 00 80 00
 (1756943990.098954)  can0  7E0   [8]  07 23 00 03 D8 80 80 00
 (1756943990.117967)  can0  7E0   [8]  07 23 00 03 D9 00 80 00
 (1756943990.136955)  can0  7E0   [8]  07 23 00 03 D9 80 80 00
 (1756943990.155950)  can0  7E0   [8]  07 23 00 03 DA 00 80 00
 (1756943990.174952)  can0  7E0   [8]  07 23 00 03 DA 80 80 00
 (1756943990.193953)  can0  7E0   [8]  07 23 00 03 DB 00 80 00
 (1756943990.212945)  can0  7E0   [8]  07 23 00 03 DB 80 80 00
 (1756943990.231944)  can0  7E0   [8]  07 23 00 03 DC 00 80 00
 (1756943990.250936)  can0  7E0   [8]  07 23 00 03 DC 80 80 00
 (1756943990.269946)  can0  7E0   [8]  07 23 00 03 DD 00 80 00
 (1756943990.288935)  can0  7E0   [8]  07 23 00 03 DD 80 80 00
 (1756943990.307940)  can0  7E0   [8]  07 23 00 03 DE 00 80 00
 (1756943990.326937)  can0  7E0   [8]  07 23 00 03 DE 80 80 00
 (1756943990.345941)  can0  7E0   [8]  07 23 00 03 DF 00 80 00
 (1756943990.364929)  can0  7E0   [8]  07 23 00 03 DF 80 80 00
 (1756943990.383933)  can0  7E0   [8]  07 23 00 03 E0 00 80 00
 (1756943990.402926)  can0  7E0   [8]  07 23 00 03 E0 80 80 00
 (1756943990.421931)  can0  7E0   [8]  07 23 00 03 E1 00 80 00
 (1756943990.440923)  can0  7E0   [8]  07 23 00 03 E1 80 80 00
 (1756943990.459925)  can0  7E0   [8]  07 23 00 03 E2 00 80 00
 (1756943990.478922)  can0  7E0   [8]  07 23 00 03 E2 80 80 00
 (1756943990.497926)  can0  7E0   [8]  07 23 00 03 E3 00 80 00
 (1756943990.516919)  can0  7E0   [8]  07 23 00 03 E3 80 80 00
 (1756943990.535921)  can0  7E0   [8]  07 23 00 03 E4 00 80 00
 (1756943990.554920)  can0  7E0   [8]  07 23 00 03 E4 80 80 00
 (1756943990.573911)  can0  7E0   [8]  07 23 00 03 E5 00 80 00
 (1756943990.592911)  can0  7E0   [8]  07 23 00 03 E5 80 80 00
 (1756943990.611906)  can0  7E0   [8]  07 23 00 03 E6 00 80 00
 (1756943990.630905)  can0  7E0   [8]  07 23 00 03 E6 80 80 00
 (1756943990.649901)  can0  7E0   [8]  07 23 00 03 E7 00 80 00
 (1756943990.668897)  can0  7E0   [8]  07 23 00 03 E7 80 80 00
 (1756943990.687901)  can0  7E0   [8]  07 23 00 03 E8 00 80 00
 (1756943990.706901)  can0  7E0   [8]  07 23 00 03 E8 80 80 00
 (1756943990.725895)  can0  7E0   [8]  07 23 00 03 E9 00 80 00
 (1756943990.744900)  can0  7E0   [8]  07 23 00 03 E9 80 80 00
 (1756943990.763898)  can0  7E0   [8]  07 23 00 03 EA 00 80 00
 (1756943990.782888)  can0  7E0   [8]  07 23 00 03 EA 80 80 00
 (1756943990.801886)  can0  7E0   [8]  07 23 00 03 EB 00 80 00
 (1756943990.820884)  can0  7E0   [8]  07 23 00 03 EB 80 80 00
 (1756943990.839886)  can0  7E0   [8]  07 23 00 03 EC 00 80 00
 (1756943990.858884)  can0  7E0   [8]  07 23 00 03 EC 80 80 00
 (1756943990.877877)  can0  7E0   [8]  07 23 00 03 ED 00 80 00
 (1756943990.896878)  can0  7E0   [8]  07 23 00 03 ED 80 80 00
 (1756943990.915880)  can0  7E0   [8]  07 23 00 03 EE 00 80 00
 (1756943990.934877)  can0  7E0   [8]  07 23 00 03 EE 80 80 00
 (1756943990.953883)  can0  7E0   [8]  07 23 00 03 EF 00 80 00
 (1756943990.972876)  can0  7E0   [8]  07 23 00 03 EF 80 80 00
 (1756943990.991869)  can0  7E0   [8]  07 23 00 03 F0 00 80 00
 (1756943991.010868)  can0  7E0   [8]  07 23 00 03 F0 80 80 00
 (1756943991.029872)  can0  7E0   [8]  07 23 00 03 F1 00 80 00
 (1756943991.048857)  can0  7E0   [8]  07 23 00 03 F1 80 80 00
 (1756943991.067861)  can0  7E0   [8]  07 23 00 03 F2 00 80 00
 (1756943991.086860)  can0  7E0   [8]  07 23 00 03 F2 80 80 00
 (1756943991.105867)  can0  7E0   [8]  07 23 00 03 F3 00 80 00
 (1756943991.124856)  can0  7E0   [8]  07 23 00 03 F3 80 80 00
 (1756943991.143862)  can0  7E0   [8]  07 23 00 03 F4 00 80 00
 (1756943991.162859)  can0  7E0   [8]  07 23 00 03 F4 80 80 00
 (1756943991.181863)  can0  7E0   [8]  07 23 00 03 F5 00 80 00
 (1756943991.200847)  can0  7E0   [8]  07 23 00 03 F5 80 80 00
 (1756943991.219845)  can0  7E0   [8]  07 23 00 03 F6 00 80 00
 (1756943991.238842)  can0  7E0   [8]  07 23 00 03 F6 80 80 00
 (1756943991.257850)  can0  7E0   [8]  07 23 00 03 F7 00 80 00
 (1756943991.276839)  can0  7E0   [8]  07 23 00 03 F7 80 80 00
 (1756943991.295841)  can0  7E0   [8]  07 23 00 03 F8 00 80 00
 (1756943991.314838)  can0  7E0   [8]  07 23 00 03 F8 80 80 00
 (1756943991.333843)  can0  7E0   [8]  07 23 00 03 F9 00 80 00
 (1756943991.352833)  can0  7E0   [8]  07 23 00 03 F9 80 80 00
 (1756943991.371839)  can0  7E0   [8]  07 23 00 03 FA 00 80 00
 (1756943991.390837)  can0  7E0   [8]  07 23 00 03 FA 80 80 00
 (1756943991.409832)  can0  7E0   [8]  07 23 00 03 FB 00 80 00
 (1756943991.428826)  can0  7E0   [8]  07 23 00 03 FB 80 80 00
 (1756943991.447827)  can0  7E0   [8]  07 23 00 03 FC 00 80 00
 (1756943991.466819)  can0  7E0   [8]  07 23 00 03 FC 80 80 00
 (1756943991.485825)  can0  7E0   [8]  07 23 00 03 FD 00 80 00
 (1756943991.504816)  can0  7E0   [8]  07 23 00 03 FD 80 80 00
 (1756943991.523825)  can0  7E0   [8]  07 23 00 03 FE 00 80 00
 (1756943991.542818)  can0  7E0   [8]  07 23 00 03 FE 80 80 00
 (1756943991.561818)  can0  7E0   [8]  07 23 00 03 FF 00 80 00
 (1756943991.580819)  can0  7E0   [8]  07 23 00 03 FF 80 80 00
 (1756943991.599818)  can0  7E0   [8]  07 23 00 04 00 00 80 00
 (1756943991.618811)  can0  7E0   [8]  07 23 00 04 00 80 80 00
 (1756943991.637814)  can0  7E0   [8]  07 23 00 04 01 00 80 00
 (1756943991.656800)  can0  7E0   [8]  07 23 00 04 01 80 80 00
 (1756943991.675801)  can0  7E0   [8]  07 23 00 04 02 00 80 00
 (1756943991.694797)  can0  7E0   [8]  07 23 00 04 02 80 80 00
 (1756943991.713808)  can0  7E0   [8]  07 23 00 04 03 00 80 00
 (1756943991.732795)  can0  7E0   [8]  07 23 00 04 03 80 80 00
 (1756943991.751801)  can0  7E0   [8]  07 23 00 04 04 00 80 00
 (1756943991.770792)  can0  7E0   [8]  07 23 00 04 04 80 80 00
 (1756943991.789800)  can0  7E0   [8]  07 23 00 04 05 00 80 00
 (1756943991.808795)  can0  7E0   [8]  07 23 00 04 05 80 80 00
 (1756943991.827791)  can0  7E0   [8]  07 23 00 04 06 00 80 00
 (1756943991.846834)  can0  7E0   [8]  07 23 00 04 06 80 80 00
 (1756943991.865804)  can0  7E0   [8]  07 23 00 04 07 00 80 00
 (1756943991.884777)  can0  7E0   [8]  07 23 00 04 07 80 80 00
 (1756943991.903786)  can0  7E0   [8]  07 23 00 04 08 00 80 00
 (1756943991.922778)  can0  7E0   [8]  07 23 00 04 08 80 80 00
 (1756943991.941804)  can0  7E0   [8]  07 23 00 04 09 00 80 00
 (1756943991.960770)  can0  7E0   [8]  07 23 00 04 09 80 80 00
 (1756943991.979773)  can0  7E0   [8]  07 23 00 04 0A 00 80 00
 (1756943991.998778)  can0  7E0   [8]  07 23 00 04 0A 80 80 00
 (1756943992.017783)  can0  7E0   [8]  07 23 00 04 0B 00 80 00
 (1756943992.036768)  can0  7E0   [8]  07 23 00 04 0B 80 80 00
 (1756943992.055767)  can0  7E0   [8]  07 23 00 04 0C 00 80 00
 (1756943992.074765)  can0  7E0   [8]  07 23 00 04 0C 80 80 00
 (1756943992.093780)  can0  7E0   [8]  07 23 00 04 0D 00 80 00
 (1756943992.112760)  can0  7E0   [8]  07 23 00 04 0D 80 80 00
 (1756943992.131760)  can0  7E0   [8]  07 23 00 04 0E 00 80 00
 (1756943992.150748)  can0  7E0   [8]  07 23 00 04 0E 80 80 00
 (1756943992.169771)  can0  7E0   [8]  07 23 00 04 0F 00 80 00
 (1756943992.188758)  can0  7E0   [8]  07 23 00 04 0F 80 80 00
 (1756943992.207749)  can0  7E0   [8]  07 23 00 04 10 00 80 00
 (1756943992.226751)  can0  7E0   [8]  07 23 00 04 10 80 80 00
 (1756943992.245774)  can0  7E0   [8]  07 23 00 04 11 00 80 00
 (1756943992.264750)  can0  7E0   [8]  07 23 00 04 11 80 80 00
 (1756943992.283743)  can0  7E0   [8]  07 23 00 04 12 00 80 00
 (1756943992.302746)  can0  7E0   [8]  07 23 00 04 12 80 80 00
 (1756943992.321741)  can0  7E0   [8]  07 23 00 04 13 00 80 00
 (1756943992.340737)  can0  7E0   [8]  07 23 00 04 13 80 80 00
 (1756943992.359745)  can0  7E0   [8]  07 23 00 04 14 00 80 00
 (1756943992.378736)  can0  7E0   [8]  07 23 00 04 14 80 80 00
 (1756943992.397734)  can0  7E0   [8]  07 23 00 04 15 00 80 00
 (1756943992.416725)  can0  7E0   [8]  07 23 00 04 15 80 80 00
 (1756943992.435739)  can0  7E0   [8]  07 23 00 04 16 00 80 00
 (1756943992.454727)  can0  7E0   [8]  07 23 00 04 16 80 80 00
 (1756943992.473730)  can0  7E0   [8]  07 23 00 04 17 00 80 00
 (1756943992.492723)  can0  7E0   [8]  07 23 00 04 17 80 80 00
 (1756943992.511720)  can0  7E0   [8]  07 23 00 04 18 00 80 00
 (1756943992.530716)  can0  7E0   [8]  07 23 00 04 18 80 80 00
 (1756943992.549719)  can0  7E0   [8]  07 23 00 04 19 00 80 00
 (1756943992.568717)  can0  7E0   [8]  07 23 00 04 19 80 80 00
 (1756943992.587712)  can0  7E0   [8]  07 23 00 04 1A 00 80 00
 (1756943992.606712)  can0  7E0   [8]  07 23 00 04 1A 80 80 00
 (1756943992.625713)  can0  7E0   [8]  07 23 00 04 1B 00 80 00
 (1756943992.644709)  can0  7E0   [8]  07 23 00 04 1B 80 80 00
 (1756943992.663713)  can0  7E0   [8]  07 23 00 04 1C 00 80 00
 (1756943992.682702)  can0  7E0   [8]  07 23 00 04 1C 80 80 00
 (1756943992.701704)  can0  7E0   [8]  07 23 00 04 1D 00 80 00
 (1756943992.720697)  can0  7E0   [8]  07 23 00 04 1D 80 80 00
 (1756943992.739698)  can0  7E0   [8]  07 23 00 04 1E 00 80 00
 (1756943992.758698)  can0  7E0   [8]  07 23 00 04 1E 80 80 00
 (1756943992.777694)  can0  7E0   [8]  07 23 00 04 1F 00 80 00
 (1756943992.796691)  can0  7E0   [8]  07 23 00 04 1F 80 80 00
 (1756943992.815690)  can0  7E0   [8]  07 23 00 04 20 00 80 00
 (1756943992.834690)  can0  7E0   [8]  07 23 00 04 20 80 80 00
 (1756943992.853695)  can0  7E0   [8]  07 23 00 04 21 00 80 00
 (1756943992.872687)  can0  7E0   [8]  07 23 00 04 21 80 80 00
 (1756943992.891681)  can0  7E0   [8]  07 23 00 04 22 00 80 00
 (1756943992.910678)  can0  7E0   [8]  07 23 00 04 22 80 80 00
 (1756943992.929679)  can0  7E0   [8]  07 23 00 04 23 00 80 00
 (1756943992.948685)  can0  7E0   [8]  07 23 00 04 23 80 80 00
 (1756943992.967677)  can0  7E0   [8]  07 23 00 04 24 00 80 00
 (1756943992.986668)  can0  7E0   [8]  07 23 00 04 24 80 80 00
 (1756943993.005690)  can0  7E0   [8]  07 23 00 04 25 00 80 00
 (1756943993.024669)  can0  7E0   [8]  07 23 00 04 25 80 80 00
 (1756943993.043664)  can0  7E0   [8]  07 23 00 04 26 00 80 00
 (1756943993.062666)  can0  7E0   [8]  07 23 00 04 26 80 80 00
 (1756943993.081690)  can0  7E0   [8]  07 23 00 04 27 00 80 00
 (1756943993.100660)  can0  7E0   [8]  07 23 00 04 27 80 80 00
 (1756943993.119658)  can0  7E0   [8]  07 23 00 04 28 00 80 00
 (1756943993.138656)  can0  7E0   [8]  07 23 00 04 28 80 80 00
 (1756943993.157658)  can0  7E0   [8]  07 23 00 04 29 00 80 00
 (1756943993.176654)  can0  7E0   [8]  07 23 00 04 29 80 80 00
 (1756943993.195653)  can0  7E0   [8]  07 23 00 04 2A 00 80 00
 (1756943993.214657)  can0  7E0   [8]  07 23 00 04 2A 80 80 00
 (1756943993.233650)  can0  7E0   [8]  07 23 00 04 2B 00 80 00
 (1756943993.252644)  can0  7E0   [8]  07 23 00 04 2B 80 80 00
 (1756943993.271650)  can0  7E0   [8]  07 23 00 04 2C 00 80 00
 (1756943993.290644)  can0  7E0   [8]  07 23 00 04 2C 80 80 00
 (1756943993.309636)  can0  7E0   [8]  07 23 00 04 2D 00 80 00
 (1756943993.328638)  can0  7E0   [8]  07 23 00 04 2D 80 80 00
 (1756943993.347642)  can0  7E0   [8]  07 23 00 04 2E 00 80 00
 (1756943993.366635)  can0  7E0   [8]  07 23 00 04 2E 80 80 00
 (1756943993.385632)  can0  7E0   [8]  07 23 00 04 2F 00 80 00
 (1756943993.404629)  can0  7E0   [8]  07 23 00 04 2F 80 80 00
 (1756943993.423631)  can0  7E0   [8]  07 23 00 04 30 00 80 00
 (1756943993.442627)  can0  7E0   [8]  07 23 00 04 30 80 80 00
 (1756943993.461621)  can0  7E0   [8]  07 23 00 04 31 00 80 00
 (1756943993.480628)  can0  7E0   [8]  07 23 00 04 31 80 80 00
 (1756943993.499625)  can0  7E0   [8]  07 23 00 04 32 00 80 00
 (1756943993.518627)  can0  7E0   [8]  07 23 00 04 32 80 80 00
 (1756943993.537614)  can0  7E0   [8]  07 23 00 04 33 00 80 00
 (1756943993.556618)  can0  7E0   [8]  07 23 00 04 33 80 80 00
 (1756943993.575615)  can0  7E0   [8]  07 23 00 04 34 00 80 00
 (1756943993.594615)  can0  7E0   [8]  07 23 00 04 34 80 80 00
 (1756943993.613609)  can0  7E0   [8]  07 23 00 04 35 00 80 00
 (1756943993.632606)  can0  7E0   [8]  07 23 00 04 35 80 80 00
 (1756943993.651613)  can0  7E0   [8]  07 23 00 04 36 00 80 00
 (1756943993.670604)  can0  7E0   [8]  07 23 00 04 36 80 80 00
 (1756943993.689609)  can0  7E0   [8]  07 23 00 04 37 00 80 00
 (1756943993.708615)  can0  7E0   [8]  07 23 00 04 37 80 80 00
 (1756943993.727601)  can0  7E0   [8]  07 23 00 04 38 00 80 00
 (1756943993.746610)  can0  7E0   [8]  07 23 00 04 38 80 80 00
 (1756943993.765596)  can0  7E0   [8]  07 23 00 04 39 00 80 00
 (1756943993.784589)  can0  7E0   [8]  07 23 00 04 39 80 80 00
 (1756943993.803593)  can0  7E0   [8]  07 23 00 04 3A 00 80 00
 (1756943993.822581)  can0  7E0   [8]  07 23 00 04 3A 80 80 00
 (1756943993.841592)  can0  7E0   [8]  07 23 00 04 3B 00 80 00
 (1756943993.860584)  can0  7E0   [8]  07 23 00 04 3B 80 80 00
 (1756943993.879587)  can0  7E0   [8]  07 23 00 04 3C 00 80 00
 (1756943993.898586)  can0  7E0   [8]  07 23 00 04 3C 80 80 00
 (1756943993.917593)  can0  7E0   [8]  07 23 00 04 3D 00 80 00
 (1756943993.936579)  can0  7E0   [8]  07 23 00 04 3D 80 80 00
 (1756943993.955587)  can0  7E0   [8]  07 23 00 04 3E 00 80 00
 (1756943993.974576)  can0  7E0   [8]  07 23 00 04 3E 80 80 00
 (1756943993.993577)  can0  7E0   [8]  07 23 00 04 3F 00 80 00
 (1756943994.012569)  can0  7E0   [8]  07 23 00 04 3F 80 80 00
 (1756943994.031570)  can0  7E0   [8]  07 23 00 04 40 00 80 00
 (1756943994.050566)  can0  7E0   [8]  07 23 00 04 40 80 80 00
 (1756943994.069576)  can0  7E0   [8]  07 23 00 04 41 00 80 00
 (1756943994.088563)  can0  7E0   [8]  07 23 00 04 41 80 80 00
 (1756943994.107568)  can0  7E0   [8]  07 23 00 04 42 00 80 00
 (1756943994.126561)  can0  7E0   [8]  07 23 00 04 42 80 80 00
 (1756943994.145559)  can0  7E0   [8]  07 23 00 04 43 00 80 00
 (1756943994.164558)  can0  7E0   [8]  07 23 00 04 43 80 80 00
 (1756943994.183555)  can0  7E0   [8]  07 23 00 04 44 00 80 00
 (1756943994.202550)  can0  7E0   [8]  07 23 00 04 44 80 80 00
 (1756943994.221552)  can0  7E0   [8]  07 23 00 04 45 00 80 00
 (1756943994.240543)  can0  7E0   [8]  07 23 00 04 45 80 80 00
 (1756943994.259548)  can0  7E0   [8]  07 23 00 04 46 00 80 00
 (1756943994.278549)  can0  7E0   [8]  07 23 00 04 46 80 80 00
 (1756943994.297541)  can0  7E0   [8]  07 23 00 04 47 00 80 00
 (1756943994.316545)  can0  7E0   [8]  07 23 00 04 47 80 80 00
 (1756943994.335540)  can0  7E0   [8]  07 23 00 04 48 00 80 00
 (1756943994.354536)  can0  7E0   [8]  07 23 00 04 48 80 80 00
 (1756943994.373548)  can0  7E0   [8]  07 23 00 04 49 00 80 00
 (1756943994.392533)  can0  7E0   [8]  07 23 00 04 49 80 80 00
 (1756943994.411530)  can0  7E0   [8]  07 23 00 04 4A 00 80 00
 (1756943994.430534)  can0  7E0   [8]  07 23 00 04 4A 80 80 00
 (1756943994.449529)  can0  7E0   [8]  07 23 00 04 4B 00 80 00
 (1756943994.468530)  can0  7E0   [8]  07 23 00 04 4B 80 80 00
 (1756943994.487529)  can0  7E0   [8]  07 23 00 04 4C 00 80 00
 (1756943994.506519)  can0  7E0   [8]  07 23 00 04 4C 80 80 00
 (1756943994.525526)  can0  7E0   [8]  07 23 00 04 4D 00 80 00
 (1756943994.544517)  can0  7E0   [8]  07 23 00 04 4D 80 80 00
 (1756943994.563516)  can0  7E0   [8]  07 23 00 04 4E 00 80 00
 (1756943994.582520)  can0  7E0   [8]  07 23 00 04 4E 80 80 00
 (1756943994.601517)  can0  7E0   [8]  07 23 00 04 4F 00 80 00
 (1756943994.620511)  can0  7E0   [8]  07 23 00 04 4F 80 80 00
 (1756943994.639510)  can0  7E0   [8]  07 23 00 04 50 00 80 00
 (1756943994.658508)  can0  7E0   [8]  07 23 00 04 50 80 80 00
 (1756943994.677508)  can0  7E0   [8]  07 23 00 04 51 00 80 00
 (1756943994.696508)  can0  7E0   [8]  07 23 00 04 51 80 80 00
 (1756943994.715507)  can0  7E0   [8]  07 23 00 04 52 00 80 00
 (1756943994.734508)  can0  7E0   [8]  07 23 00 04 52 80 80 00
 (1756943994.753512)  can0  7E0   [8]  07 23 00 04 53 00 80 00
 (1756943994.772500)  can0  7E0   [8]  07 23 00 04 53 80 80 00
 (1756943994.791498)  can0  7E0   [8]  07 23 00 04 54 00 80 00
 (1756943994.810490)  can0  7E0   [8]  07 23 00 04 54 80 80 00
 (1756943994.829495)  can0  7E0   [8]  07 23 00 04 55 00 80 00
 (1756943994.848479)  can0  7E0   [8]  07 23 00 04 55 80 80 00
 (1756943994.867496)  can0  7E0   [8]  07 23 00 04 56 00 80 00
 (1756943994.886484)  can0  7E0   [8]  07 23 00 04 56 80 80 00
 (1756943994.905490)  can0  7E0   [8]  07 23 00 04 57 00 80 00
 (1756943994.924480)  can0  7E0   [8]  07 23 00 04 57 80 80 00
 (1756943994.943483)  can0  7E0   [8]  07 23 00 04 58 00 80 00
 (1756943994.962493)  can0  7E0   [8]  07 23 00 04 58 80 80 00
 (1756943994.981475)  can0  7E0   [8]  07 23 00 04 59 00 80 00
 (1756943995.000480)  can0  7E0   [8]  07 23 00 04 59 80 80 00
 (1756943995.019477)  can0  7E0   [8]  07 23 00 04 5A 00 80 00
 (1756943995.038512)  can0  7E0   [8]  07 23 00 04 5A 80 80 00
 (1756943995.057467)  can0  7E0   [8]  07 23 00 04 5B 00 80 00
 (1756943995.076452)  can0  7E0   [8]  07 23 00 04 5B 80 80 00
 (1756943995.095454)  can0  7E0   [8]  07 23 00 04 5C 00 80 00
 (1756943995.114451)  can0  7E0   [8]  07 23 00 04 5C 80 80 00
 (1756943995.133446)  can0  7E0   [8]  07 23 00 04 5D 00 80 00
 (1756943995.152437)  can0  7E0   [8]  07 23 00 04 5D 80 80 00
 (1756943995.171444)  can0  7E0   [8]  07 23 00 04 5E 00 80 00
 (1756943995.190444)  can0  7E0   [8]  07 23 00 04 5E 80 80 00
 (1756943995.209447)  can0  7E0   [8]  07 23 00 04 5F 00 80 00
 (1756943995.228444)  can0  7E0   [8]  07 23 00 04 5F 80 80 00
 (1756943995.247435)  can0  7E0   [8]  07 23 00 04 60 00 80 00
 (1756943995.266440)  can0  7E0   [8]  07 23 00 04 60 80 80 00
 (1756943995.285424)  can0  7E0   [8]  07 23 00 04 61 00 80 00
 (1756943995.304436)  can0  7E0   [8]  07 23 00 04 61 80 80 00
 (1756943995.323437)  can0  7E0   [8]  07 23 00 04 62 00 80 00
 (1756943995.342428)  can0  7E0   [8]  07 23 00 04 62 80 80 00
 (1756943995.361420)  can0  7E0   [8]  07 23 00 04 63 00 80 00
 (1756943995.380425)  can0  7E0   [8]  07 23 00 04 63 80 80 00
 (1756943995.399427)  can0  7E0   [8]  07 23 00 04 64 00 80 00
 (1756943995.418425)  can0  7E0   [8]  07 23 00 04 64 80 80 00
 (1756943995.437421)  can0  7E0   [8]  07 23 00 04 65 00 80 00
 (1756943995.456491)  can0  7E0   [8]  07 23 00 04 65 80 80 00
 (1756943995.475410)  can0  7E0   [8]  07 23 00 04 66 00 80 00
 (1756943995.494409)  can0  7E0   [8]  07 23 00 04 66 80 80 00
 (1756943995.513411)  can0  7E0   [8]  07 23 00 04 67 00 80 00
 (1756943995.532402)  can0  7E0   [8]  07 23 00 04 67 80 80 00
 (1756943995.551412)  can0  7E0   [8]  07 23 00 04 68 00 80 00
 (1756943995.570403)  can0  7E0   [8]  07 23 00 04 68 80 80 00
 (1756943995.589405)  can0  7E0   [8]  07 23 00 04 69 00 80 00
 (1756943995.608406)  can0  7E0   [8]  07 23 00 04 69 80 80 00
 (1756943995.627396)  can0  7E0   [8]  07 23 00 04 6A 00 80 00
 (1756943995.646399)  can0  7E0   [8]  07 23 00 04 6A 80 80 00
 (1756943995.665397)  can0  7E0   [8]  07 23 00 04 6B 00 80 00
 (1756943995.684391)  can0  7E0   [8]  07 23 00 04 6B 80 80 00
 (1756943995.703388)  can0  7E0   [8]  07 23 00 04 6C 00 80 00
 (1756943995.722392)  can0  7E0   [8]  07 23 00 04 6C 80 80 00
 (1756943995.741386)  can0  7E0   [8]  07 23 00 04 6D 00 80 00
 (1756943995.760385)  can0  7E0   [8]  07 23 00 04 6D 80 80 00
 (1756943995.779380)  can0  7E0   [8]  07 23 00 04 6E 00 80 00
 (1756943995.798387)  can0  7E0   [8]  07 23 00 04 6E 80 80 00
 (1756943995.817385)  can0  7E0   [8]  07 23 00 04 6F 00 80 00
 (1756943995.836380)  can0  7E0   [8]  07 23 00 04 6F 80 80 00
 (1756943995.855374)  can0  7E0   [8]  07 23 00 04 70 00 80 00
 (1756943995.874379)  can0  7E0   [8]  07 23 00 04 70 80 80 00
 (1756943995.893369)  can0  7E0   [8]  07 23 00 04 71 00 80 00
 (1756943995.912383)  can0  7E0   [8]  07 23 00 04 71 80 80 00
 (1756943995.931368)  can0  7E0   [8]  07 23 00 04 72 00 80 00
 (1756943995.950378)  can0  7E0   [8]  07 23 00 04 72 80 80 00
 (1756943995.969356)  can0  7E0   [8]  07 23 00 04 73 00 80 00
 (1756943995.988362)  can0  7E0   [8]  07 23 00 04 73 80 80 00
 (1756943996.007372)  can0  7E0   [8]  07 23 00 04 74 00 80 00
 (1756943996.026361)  can0  7E0   [8]  07 23 00 04 74 80 80 00
 (1756943996.045362)  can0  7E0   [8]  07 23 00 04 75 00 80 00
 (1756943996.064358)  can0  7E0   [8]  07 23 00 04 75 80 80 00
 (1756943996.083357)  can0  7E0   [8]  07 23 00 04 76 00 80 00
 (1756943996.102353)  can0  7E0   [8]  07 23 00 04 76 80 80 00
 (1756943996.121345)  can0  7E0   [8]  07 23 00 04 77 00 80 00
 (1756943996.140350)  can0  7E0   [8]  07 23 00 04 77 80 80 00
 (1756943996.159352)  can0  7E0   [8]  07 23 00 04 78 00 80 00
 (1756943996.178346)  can0  7E0   [8]  07 23 00 04 78 80 80 00
 (1756943996.197348)  can0  7E0   [8]  07 23 00 04 79 00 80 00
 (1756943996.216345)  can0  7E0   [8]  07 23 00 04 79 80 80 00
 (1756943996.235339)  can0  7E0   [8]  07 23 00 04 7A 00 80 00
 (1756943996.254339)  can0  7E0   [8]  07 23 00 04 7A 80 80 00
 (1756943996.273342)  can0  7E0   [8]  07 23 00 04 7B 00 80 00
 (1756943996.292336)  can0  7E0   [8]  07 23 00 04 7B 80 80 00
 (1756943996.311337)  can0  7E0   [8]  07 23 00 04 7C 00 80 00
 (1756943996.330328)  can0  7E0   [8]  07 23 00 04 7C 80 80 00
 (1756943996.349332)  can0  7E0   [8]  07 23 00 04 7D 00 80 00
 (1756943996.368330)  can0  7E0   [8]  07 23 00 04 7D 80 80 00
 (1756943996.387328)  can0  7E0   [8]  07 23 00 04 7E 00 80 00
 (1756943996.406325)  can0  7E0   [8]  07 23 00 04 7E 80 80 00
 (1756943996.425336)  can0  7E0   [8]  07 23 00 04 7F 00 80 00
 (1756943996.444322)  can0  7E0   [8]  07 23 00 04 7F 80 80 00
 (1756943996.463323)  can0  7E0   [8]  07 23 00 04 80 00 80 00
 (1756943996.482313)  can0  7E0   [8]  07 23 00 04 80 80 80 00
 (1756943996.501311)  can0  7E0   [8]  07 23 00 04 81 00 80 00
 (1756943996.520302)  can0  7E0   [8]  07 23 00 04 81 80 80 00
 (1756943996.539315)  can0  7E0   [8]  07 23 00 04 82 00 80 00
 (1756943996.558306)  can0  7E0   [8]  07 23 00 04 82 80 80 00
 (1756943996.577311)  can0  7E0   [8]  07 23 00 04 83 00 80 00
 (1756943996.596315)  can0  7E0   [8]  07 23 00 04 83 80 80 00
 (1756943996.615302)  can0  7E0   [8]  07 23 00 04 84 00 80 00
 (1756943996.634302)  can0  7E0   [8]  07 23 00 04 84 80 80 00
 (1756943996.653310)  can0  7E0   [8]  07 23 00 04 85 00 80 00
 (1756943996.672295)  can0  7E0   [8]  07 23 00 04 85 80 80 00
 (1756943996.691292)  can0  7E0   [8]  07 23 00 04 86 00 80 00
 (1756943996.710290)  can0  7E0   [8]  07 23 00 04 86 80 80 00
 (1756943996.729289)  can0  7E0   [8]  07 23 00 04 87 00 80 00
 (1756943996.748285)  can0  7E0   [8]  07 23 00 04 87 80 80 00
 (1756943996.767294)  can0  7E0   [8]  07 23 00 04 88 00 80 00
 (1756943996.786292)  can0  7E0   [8]  07 23 00 04 88 80 80 00
 (1756943996.805288)  can0  7E0   [8]  07 23 00 04 89 00 80 00
 (1756943996.824286)  can0  7E0   [8]  07 23 00 04 89 80 80 00
 (1756943996.843287)  can0  7E0   [8]  07 23 00 04 8A 00 80 00
 (1756943996.862281)  can0  7E0   [8]  07 23 00 04 8A 80 80 00
 (1756943996.881284)  can0  7E0   [8]  07 23 00 04 8B 00 80 00
 (1756943996.900272)  can0  7E0   [8]  07 23 00 04 8B 80 80 00
 (1756943996.919271)  can0  7E0   [8]  07 23 00 04 8C 00 80 00
 (1756943996.938268)  can0  7E0   [8]  07 23 00 04 8C 80 80 00
 (1756943996.957273)  can0  7E0   [8]  07 23 00 04 8D 00 80 00
 (1756943996.976264)  can0  7E0   [8]  07 23 00 04 8D 80 80 00
 (1756943996.995264)  can0  7E0   [8]  07 23 00 04 8E 00 80 00
 (1756943997.014258)  can0  7E0   [8]  07 23 00 04 8E 80 80 00
 (1756943997.033267)  can0  7E0   [8]  07 23 00 04 8F 00 80 00
 (1756943997.052279)  can0  7E0   [8]  07 23 00 04 8F 80 80 00
 (1756943997.071272)  can0  7E0   [8]  07 23 00 04 90 00 80 00
 (1756943997.090255)  can0  7E0   [8]  07 23 00 04 90 80 80 00
 (1756943997.109256)  can0  7E0   [8]  07 23 00 04 91 00 80 00
 (1756943997.128253)  can0  7E0   [8]  07 23 00 04 91 80 80 00
 (1756943997.147252)  can0  7E0   [8]  07 23 00 04 92 00 80 00
 (1756943997.166249)  can0  7E0   [8]  07 23 00 04 92 80 80 00
 (1756943997.185246)  can0  7E0   [8]  07 23 00 04 93 00 80 00
 (1756943997.204244)  can0  7E0   [8]  07 23 00 04 93 80 80 00
 (1756943997.223245)  can0  7E0   [8]  07 23 00 04 94 00 80 00
 (1756943997.242247)  can0  7E0   [8]  07 23 00 04 94 80 80 00
 (1756943997.261243)  can0  7E0   [8]  07 23 00 04 95 00 80 00
 (1756943997.280246)  can0  7E0   [8]  07 23 00 04 95 80 80 00
 (1756943997.299235)  can0  7E0   [8]  07 23 00 04 96 00 80 00
 (1756943997.318240)  can0  7E0   [8]  07 23 00 04 96 80 80 00
 (1756943997.337236)  can0  7E0   [8]  07 23 00 04 97 00 80 00
 (1756943997.356228)  can0  7E0   [8]  07 23 00 04 97 80 80 00
 (1756943997.375229)  can0  7E0   [8]  07 23 00 04 98 00 80 00
 (1756943997.394222)  can0  7E0   [8]  07 23 00 04 98 80 80 00
 (1756943997.413228)  can0  7E0   [8]  07 23 00 04 99 00 80 00
 (1756943997.432222)  can0  7E0   [8]  07 23 00 04 99 80 80 00
 (1756943997.451223)  can0  7E0   [8]  07 23 00 04 9A 00 80 00
 (1756943997.470214)  can0  7E0   [8]  07 23 00 04 9A 80 80 00
 (1756943997.489222)  can0  7E0   [8]  07 23 00 04 9B 00 80 00
 (1756943997.508221)  can0  7E0   [8]  07 23 00 04 9B 80 80 00
 (1756943997.527215)  can0  7E0   [8]  07 23 00 04 9C 00 80 00
 (1756943997.546210)  can0  7E0   [8]  07 23 00 04 9C 80 80 00
 (1756943997.565206)  can0  7E0   [8]  07 23 00 04 9D 00 80 00
 (1756943997.584203)  can0  7E0   [8]  07 23 00 04 9D 80 80 00
 (1756943997.603205)  can0  7E0   [8]  07 23 00 04 9E 00 80 00
 (1756943997.622198)  can0  7E0   [8]  07 23 00 04 9E 80 80 00
 (1756943997.641208)  can0  7E0   [8]  07 23 00 04 9F 00 80 00
 (1756943997.660195)  can0  7E0   [8]  07 23 00 04 9F 80 80 00
 (1756943997.679198)  can0  7E0   [8]  07 23 00 04 A0 00 80 00
 (1756943997.698202)  can0  7E0   [8]  07 23 00 04 A0 80 80 00
 (1756943997.717200)  can0  7E0   [8]  07 23 00 04 A1 00 80 00
 (1756943997.736189)  can0  7E0   [8]  07 23 00 04 A1 80 80 00
 (1756943997.755191)  can0  7E0   [8]  07 23 00 04 A2 00 80 00
 (1756943997.774190)  can0  7E0   [8]  07 23 00 04 A2 80 80 00
 (1756943997.793194)  can0  7E0   [8]  07 23 00 04 A3 00 80 00
 (1756943997.812181)  can0  7E0   [8]  07 23 00 04 A3 80 80 00
 (1756943997.831183)  can0  7E0   [8]  07 23 00 04 A4 00 80 00
 (1756943997.850174)  can0  7E0   [8]  07 23 00 04 A4 80 80 00
 (1756943997.869182)  can0  7E0   [8]  07 23 00 04 A5 00 80 00
 (1756943997.888183)  can0  7E0   [8]  07 23 00 04 A5 80 80 00
 (1756943997.907183)  can0  7E0   [8]  07 23 00 04 A6 00 80 00
 (1756943997.926180)  can0  7E0   [8]  07 23 00 04 A6 80 80 00
 (1756943997.945169)  can0  7E0   [8]  07 23 00 04 A7 00 80 00
 (1756943997.964164)  can0  7E0   [8]  07 23 00 04 A7 80 80 00
 (1756943997.983166)  can0  7E0   [8]  07 23 00 04 A8 00 80 00
 (1756943998.002162)  can0  7E0   [8]  07 23 00 04 A8 80 80 00
 (1756943998.021168)  can0  7E0   [8]  07 23 00 04 A9 00 80 00
 (1756943998.040166)  can0  7E0   [8]  07 23 00 04 A9 80 80 00
 (1756943998.059158)  can0  7E0   [8]  07 23 00 04 AA 00 80 00
 (1756943998.078163)  can0  7E0   [8]  07 23 00 04 AA 80 80 00
 (1756943998.097155)  can0  7E0   [8]  07 23 00 04 AB 00 80 00
 (1756943998.116161)  can0  7E0   [8]  07 23 00 04 AB 80 80 00
 (1756943998.135160)  can0  7E0   [8]  07 23 00 04 AC 00 80 00
 (1756943998.154151)  can0  7E0   [8]  07 23 00 04 AC 80 80 00
 (1756943998.173148)  can0  7E0   [8]  07 23 00 04 AD 00 80 00
 (1756943998.192147)  can0  7E0   [8]  07 23 00 04 AD 80 80 00
 (1756943998.211147)  can0  7E0   [8]  07 23 00 04 AE 00 80 00
 (1756943998.230140)  can0  7E0   [8]  07 23 00 04 AE 80 80 00
 (1756943998.249141)  can0  7E0   [8]  07 23 00 04 AF 00 80 00
 (1756943998.268147)  can0  7E0   [8]  07 23 00 04 AF 80 80 00
 (1756943998.287141)  can0  7E0   [8]  07 23 00 04 B0 00 80 00
 (1756943998.306131)  can0  7E0   [8]  07 23 00 04 B0 80 80 00
 (1756943998.325139)  can0  7E0   [8]  07 23 00 04 B1 00 80 00
 (1756943998.344141)  can0  7E0   [8]  07 23 00 04 B1 80 80 00
 (1756943998.363134)  can0  7E0   [8]  07 23 00 04 B2 00 80 00
 (1756943998.382139)  can0  7E0   [8]  07 23 00 04 B2 80 80 00
 (1756943998.401133)  can0  7E0   [8]  07 23 00 04 B3 00 80 00
 (1756943998.420120)  can0  7E0   [8]  07 23 00 04 B3 80 80 00
 (1756943998.439134)  can0  7E0   [8]  07 23 00 04 B4 00 80 00
 (1756943998.458121)  can0  7E0   [8]  07 23 00 04 B4 80 80 00
 (1756943998.477125)  can0  7E0   [8]  07 23 00 04 B5 00 80 00
 (1756943998.496123)  can0  7E0   [8]  07 23 00 04 B5 80 80 00
 (1756943998.515120)  can0  7E0   [8]  07 23 00 04 B6 00 80 00
 (1756943998.534115)  can0  7E0   [8]  07 23 00 04 B6 80 80 00
 (1756943998.553115)  can0  7E0   [8]  07 23 00 04 B7 00 80 00
 (1756943998.572109)  can0  7E0   [8]  07 23 00 04 B7 80 80 00
 (1756943998.591114)  can0  7E0   [8]  07 23 00 04 B8 00 80 00
 (1756943998.610108)  can0  7E0   [8]  07 23 00 04 B8 80 80 00
 (1756943998.629105)  can0  7E0   [8]  07 23 00 04 B9 00 80 00
 (1756943998.648102)  can0  7E0   [8]  07 23 00 04 B9 80 80 00
 (1756943998.667099)  can0  7E0   [8]  07 23 00 04 BA 00 80 00
 (1756943998.686099)  can0  7E0   [8]  07 23 00 04 BA 80 80 00
 (1756943998.705096)  can0  7E0   [8]  07 23 00 04 BB 00 80 00
 (1756943998.724093)  can0  7E0   [8]  07 23 00 04 BB 80 80 00
 (1756943998.743100)  can0  7E0   [8]  07 23 00 04 BC 00 80 00
 (1756943998.762103)  can0  7E0   [8]  07 23 00 04 BC 80 80 00
 (1756943998.781093)  can0  7E0   [8]  07 23 00 04 BD 00 80 00
 (1756943998.800093)  can0  7E0   [8]  07 23 00 04 BD 80 80 00
 (1756943998.819091)  can0  7E0   [8]  07 23 00 04 BE 00 80 00
 (1756943998.838084)  can0  7E0   [8]  07 23 00 04 BE 80 80 00
 (1756943998.857082)  can0  7E0   [8]  07 23 00 04 BF 00 80 00
 (1756943998.876078)  can0  7E0   [8]  07 23 00 04 BF 80 80 00
 (1756943998.895077)  can0  7E0   [8]  07 23 00 04 C0 00 80 00
 (1756943998.914078)  can0  7E0   [8]  07 23 00 04 C0 80 80 00
 (1756943998.933084)  can0  7E0   [8]  07 23 00 04 C1 00 80 00
 (1756943998.952082)  can0  7E0   [8]  07 23 00 04 C1 80 80 00
 (1756943998.971085)  can0  7E0   [8]  07 23 00 04 C2 00 80 00
 (1756943998.990071)  can0  7E0   [8]  07 23 00 04 C2 80 80 00
 (1756943999.009066)  can0  7E0   [8]  07 23 00 04 C3 00 80 00
 (1756943999.028070)  can0  7E0   [8]  07 23 00 04 C3 80 80 00
 (1756943999.047073)  can0  7E0   [8]  07 23 00 04 C4 00 80 00
 (1756943999.066063)  can0  7E0   [8]  07 23 00 04 C4 80 80 00
 (1756943999.085059)  can0  7E0   [8]  07 23 00 04 C5 00 80 00
 (1756943999.104058)  can0  7E0   [8]  07 23 00 04 C5 80 80 00
 (1756943999.123055)  can0  7E0   [8]  07 23 00 04 C6 00 80 00
 (1756943999.142061)  can0  7E0   [8]  07 23 00 04 C6 80 80 00
 (1756943999.161048)  can0  7E0   [8]  07 23 00 04 C7 00 80 00
 (1756943999.180054)  can0  7E0   [8]  07 23 00 04 C7 80 80 00
 (1756943999.199052)  can0  7E0   [8]  07 23 00 04 C8 00 80 00
 (1756943999.218045)  can0  7E0   [8]  07 23 00 04 C8 80 80 00
 (1756943999.237046)  can0  7E0   [8]  07 23 00 04 C9 00 80 00
 (1756943999.256045)  can0  7E0   [8]  07 23 00 04 C9 80 80 00
 (1756943999.275038)  can0  7E0   [8]  07 23 00 04 CA 00 80 00
 (1756943999.294045)  can0  7E0   [8]  07 23 00 04 CA 80 80 00
 (1756943999.313036)  can0  7E0   [8]  07 23 00 04 CB 00 80 00
 (1756943999.332039)  can0  7E0   [8]  07 23 00 04 CB 80 80 00
 (1756943999.351036)  can0  7E0   [8]  07 23 00 04 CC 00 80 00
 (1756943999.370038)  can0  7E0   [8]  07 23 00 04 CC 80 80 00
 (1756943999.389035)  can0  7E0   [8]  07 23 00 04 CD 00 80 00
 (1756943999.408025)  can0  7E0   [8]  07 23 00 04 CD 80 80 00
 (1756943999.427027)  can0  7E0   [8]  07 23 00 04 CE 00 80 00
 (1756943999.446022)  can0  7E0   [8]  07 23 00 04 CE 80 80 00
 (1756943999.465021)  can0  7E0   [8]  07 23 00 04 CF 00 80 00
 (1756943999.484026)  can0  7E0   [8]  07 23 00 04 CF 80 80 00
 (1756943999.503021)  can0  7E0   [8]  07 23 00 04 D0 00 80 00
 (1756943999.522013)  can0  7E0   [8]  07 23 00 04 D0 80 80 00
 (1756943999.541015)  can0  7E0   [8]  07 23 00 04 D1 00 80 00
 (1756943999.560017)  can0  7E0   [8]  07 23 00 04 D1 80 80 00
 (1756943999.579016)  can0  7E0   [8]  07 23 00 04 D2 00 80 00
 (1756943999.598021)  can0  7E0   [8]  07 23 00 04 D2 80 80 00
 (1756943999.617011)  can0  7E0   [8]  07 23 00 04 D3 00 80 00
 (1756943999.636007)  can0  7E0   [8]  07 23 00 04 D3 80 80 00
 (1756943999.655002)  can0  7E0   [8]  07 23 00 04 D4 00 80 00
 (1756943999.673999)  can0  7E0   [8]  07 23 00 04 D4 80 80 00
 (1756943999.693008)  can0  7E0   [8]  07 23 00 04 D5 00 80 00
 (1756943999.712003)  can0  7E0   [8]  07 23 00 04 D5 80 80 00
 (1756943999.730998)  can0  7E0   [8]  07 23 00 04 D6 00 80 00
 (1756943999.749994)  can0  7E0   [8]  07 23 00 04 D6 80 80 00
 (1756943999.768990)  can0  7E0   [8]  07 23 00 04 D7 00 80 00
 (1756943999.787994)  can0  7E0   [8]  07 23 00 04 D7 80 80 00
 (1756943999.806995)  can0  7E0   [8]  07 23 00 04 D8 00 80 00
 (1756943999.825998)  can0  7E0   [8]  07 23 00 04 D8 80 80 00
 (1756943999.844990)  can0  7E0   [8]  07 23 00 04 D9 00 80 00
 (1756943999.863977)  can0  7E0   [8]  07 23 00 04 D9 80 80 00
 (1756943999.882985)  can0  7E0   [8]  07 23 00 04 DA 00 80 00
 (1756943999.901978)  can0  7E0   [8]  07 23 00 04 DA 80 80 00
 (1756943999.920985)  can0  7E0   [8]  07 23 00 04 DB 00 80 00
 (1756943999.939976)  can0  7E0   [8]  07 23 00 04 DB 80 80 00
 (1756943999.958973)  can0  7E0   [8]  07 23 00 04 DC 00 80 00
 (1756943999.977977)  can0  7E0   [8]  07 23 00 04 DC 80 80 00
 (1756943999.996973)  can0  7E0   [8]  07 23 00 04 DD 00 80 00
 (1756944000.015976)  can0  7E0   [8]  07 23 00 04 DD 80 80 00
 (1756944000.034968)  can0  7E0   [8]  07 23 00 04 DE 00 80 00
 (1756944000.053971)  can0  7E0   [8]  07 23 00 04 DE 80 80 00
 (1756944000.072981)  can0  7E0   [8]  07 23 00 04 DF 00 80 00
 (1756944000.092006)  can0  7E0   [8]  07 23 00 04 DF 80 80 00
 (1756944000.110981)  can0  7E0   [8]  07 23 00 04 E0 00 80 00
 (1756944000.129976)  can0  7E0   [8]  07 23 00 04 E0 80 80 00
 (1756944000.148988)  can0  7E0   [8]  07 23 00 04 E1 00 80 00
 (1756944000.167957)  can0  7E0   [8]  07 23 00 04 E1 80 80 00
 (1756944000.186970)  can0  7E0   [8]  07 23 00 04 E2 00 80 00
 (1756944000.205966)  can0  7E0   [8]  07 23 00 04 E2 80 80 00
 (1756944000.224964)  can0  7E0   [8]  07 23 00 04 E3 00 80 00
 (1756944000.243973)  can0  7E0   [8]  07 23 00 04 E3 80 80 00
 (1756944000.262961)  can0  7E0   [8]  07 23 00 04 E4 00 80 00
 (1756944000.281967)  can0  7E0   [8]  07 23 00 04 E4 80 80 00
 (1756944000.300951)  can0  7E0   [8]  07 23 00 04 E5 00 80 00
 (1756944000.319948)  can0  7E0   [8]  07 23 00 04 E5 80 80 00
 (1756944000.338950)  can0  7E0   [8]  07 23 00 04 E6 00 80 00
 (1756944000.357953)  can0  7E0   [8]  07 23 00 04 E6 80 80 00
 (1756944000.376950)  can0  7E0   [8]  07 23 00 04 E7 00 80 00
 (1756944000.395951)  can0  7E0   [8]  07 23 00 04 E7 80 80 00
 (1756944000.414939)  can0  7E0   [8]  07 23 00 04 E8 00 80 00
 (1756944000.433950)  can0  7E0   [8]  07 23 00 04 E8 80 80 00
 (1756944000.452940)  can0  7E0   [8]  07 23 00 04 E9 00 80 00
 (1756944000.471935)  can0  7E0   [8]  07 23 00 04 E9 80 80 00
 (1756944000.490943)  can0  7E0   [8]  07 23 00 04 EA 00 80 00
 (1756944000.509945)  can0  7E0   [8]  07 23 00 04 EA 80 80 00
 (1756944000.528932)  can0  7E0   [8]  07 23 00 04 EB 00 80 00
 (1756944000.547938)  can0  7E0   [8]  07 23 00 04 EB 80 80 00
 (1756944000.566933)  can0  7E0   [8]  07 23 00 04 EC 00 80 00
 (1756944000.585934)  can0  7E0   [8]  07 23 00 04 EC 80 80 00
 (1756944000.604933)  can0  7E0   [8]  07 23 00 04 ED 00 80 00
 (1756944000.623925)  can0  7E0   [8]  07 23 00 04 ED 80 80 00
 (1756944000.642932)  can0  7E0   [8]  07 23 00 04 EE 00 80 00
 (1756944000.661928)  can0  7E0   [8]  07 23 00 04 EE 80 80 00
 (1756944000.680926)  can0  7E0   [8]  07 23 00 04 EF 00 80 00
 (1756944000.699915)  can0  7E0   [8]  07 23 00 04 EF 80 80 00
 (1756944000.718917)  can0  7E0   [8]  07 23 00 04 F0 00 80 00
 (1756944000.737912)  can0  7E0   [8]  07 23 00 04 F0 80 80 00
 (1756944000.756911)  can0  7E0   [8]  07 23 00 04 F1 00 80 00
 (1756944000.775911)  can0  7E0   [8]  07 23 00 04 F1 80 80 00
 (1756944000.794908)  can0  7E0   [8]  07 23 00 04 F2 00 80 00
 (1756944000.813904)  can0  7E0   [8]  07 23 00 04 F2 80 80 00
 (1756944000.832913)  can0  7E0   [8]  07 23 00 04 F3 00 80 00
 (1756944000.851902)  can0  7E0   [8]  07 23 00 04 F3 80 80 00
 (1756944000.870905)  can0  7E0   [8]  07 23 00 04 F4 00 80 00
 (1756944000.889900)  can0  7E0   [8]  07 23 00 04 F4 80 80 00
 (1756944000.908898)  can0  7E0   [8]  07 23 00 04 F5 00 80 00
 (1756944000.927894)  can0  7E0   [8]  07 23 00 04 F5 80 80 00
 (1756944000.946895)  can0  7E0   [8]  07 23 00 04 F6 00 80 00
 (1756944000.965891)  can0  7E0   [8]  07 23 00 04 F6 80 80 00
 (1756944000.984889)  can0  7E0   [8]  07 23 00 04 F7 00 80 00
 (1756944001.003893)  can0  7E0   [8]  07 23 00 04 F7 80 80 00
 (1756944001.022886)  can0  7E0   [8]  07 23 00 04 F8 00 80 00
 (1756944001.041887)  can0  7E0   [8]  07 23 00 04 F8 80 80 00
 (1756944001.060895)  can0  7E0   [8]  07 23 00 04 F9 00 80 00
 (1756944001.079886)  can0  7E0   [8]  07 23 00 04 F9 80 80 00
 (1756944001.098877)  can0  7E0   [8]  07 23 00 04 FA 00 80 00
 (1756944001.117875)  can0  7E0   [8]  07 23 00 04 FA 80 80 00
 (1756944001.136874)  can0  7E0   [8]  07 23 00 04 FB 00 80 00
 (1756944001.155878)  can0  7E0   [8]  07 23 00 04 FB 80 80 00
 (1756944001.174870)  can0  7E0   [8]  07 23 00 04 FC 00 80 00
 (1756944001.193874)  can0  7E0   [8]  07 23 00 04 FC 80 80 00
 (1756944001.212864)  can0  7E0   [8]  07 23 00 04 FD 00 80 00
 (1756944001.231866)  can0  7E0   [8]  07 23 00 04 FD 80 80 00
 (1756944001.250861)  can0  7E0   [8]  07 23 00 04 FE 00 80 00
 (1756944001.269870)  can0  7E0   [8]  07 23 00 04 FE 80 80 00
 (1756944001.288941)  can0  7E0   [8]  07 23 00 04 FF 00 80 00
 (1756944001.307855)  can0  7E0   [8]  07 23 00 04 FF 80 80 00
 (1756944001.326854)  can0  7E0   [8]  07 23 00 05 00 00 80 00
 (1756944001.345851)  can0  7E0   [8]  07 23 00 05 00 80 80 00
 (1756944001.364848)  can0  7E0   [8]  07 23 00 05 01 00 80 00
 (1756944001.383851)  can0  7E0   [8]  07 23 00 05 01 80 80 00
 (1756944001.402847)  can0  7E0   [8]  07 23 00 05 02 00 80 00
 (1756944001.421853)  can0  7E0   [8]  07 23 00 05 02 80 80 00
 (1756944001.440842)  can0  7E0   [8]  07 23 00 05 03 00 80 00
 (1756944001.459841)  can0  7E0   [8]  07 23 00 05 03 80 80 00
 (1756944001.478848)  can0  7E0   [8]  07 23 00 05 04 00 80 00
 (1756944001.497846)  can0  7E0   [8]  07 23 00 05 04 80 80 00
 (1756944001.516834)  can0  7E0   [8]  07 23 00 05 05 00 80 00
 (1756944001.535842)  can0  7E0   [8]  07 23 00 05 05 80 80 00
 (1756944001.554832)  can0  7E0   [8]  07 23 00 05 06 00 80 00
 (1756944001.573834)  can0  7E0   [8]  07 23 00 05 06 80 80 00
 (1756944001.592832)  can0  7E0   [8]  07 23 00 05 07 00 80 00
 (1756944001.611831)  can0  7E0   [8]  07 23 00 05 07 80 80 00
 (1756944001.630821)  can0  7E0   [8]  07 23 00 05 08 00 80 00
 (1756944001.649826)  can0  7E0   [8]  07 23 00 05 08 80 80 00
 (1756944001.668824)  can0  7E0   [8]  07 23 00 05 09 00 80 00
 (1756944001.687828)  can0  7E0   [8]  07 23 00 05 09 80 80 00
 (1756944001.706817)  can0  7E0   [8]  07 23 00 05 0A 00 80 00
 (1756944001.725817)  can0  7E0   [8]  07 23 00 05 0A 80 80 00
 (1756944001.744810)  can0  7E0   [8]  07 23 00 05 0B 00 80 00
 (1756944001.763809)  can0  7E0   [8]  07 23 00 05 0B 80 80 00
 (1756944001.782807)  can0  7E0   [8]  07 23 00 05 0C 00 80 00
 (1756944001.801820)  can0  7E0   [8]  07 23 00 05 0C 80 80 00
 (1756944001.820800)  can0  7E0   [8]  07 23 00 05 0D 00 80 00
 (1756944001.839805)  can0  7E0   [8]  07 23 00 05 0D 80 80 00
 (1756944001.858805)  can0  7E0   [8]  07 23 00 05 0E 00 80 00
 (1756944001.877808)  can0  7E0   [8]  07 23 00 05 0E 80 80 00
 (1756944001.896802)  can0  7E0   [8]  07 23 00 05 0F 00 80 00
 (1756944001.915812)  can0  7E0   [8]  07 23 00 05 0F 80 80 00
 (1756944001.934797)  can0  7E0   [8]  07 23 00 05 10 00 80 00
 (1756944001.953796)  can0  7E0   [8]  07 23 00 05 10 80 80 00
 (1756944001.972788)  can0  7E0   [8]  07 23 00 05 11 00 80 00
 (1756944001.991799)  can0  7E0   [8]  07 23 00 05 11 80 80 00
 (1756944002.010795)  can0  7E0   [8]  07 23 00 05 12 00 80 00
 (1756944002.029793)  can0  7E0   [8]  07 23 00 05 12 80 80 00
 (1756944002.048785)  can0  7E0   [8]  07 23 00 05 13 00 80 00
 (1756944002.067781)  can0  7E0   [8]  07 23 00 05 13 80 80 00
 (1756944002.086781)  can0  7E0   [8]  07 23 00 05 14 00 80 00
 (1756944002.105806)  can0  7E0   [8]  07 23 00 05 14 80 80 00
 (1756944002.124782)  can0  7E0   [8]  07 23 00 05 15 00 80 00
 (1756944002.143770)  can0  7E0   [8]  07 23 00 05 15 80 80 00
 (1756944002.162768)  can0  7E0   [8]  07 23 00 05 16 00 80 00
 (1756944002.181784)  can0  7E0   [8]  07 23 00 05 16 80 80 00
 (1756944002.200762)  can0  7E0   [8]  07 23 00 05 17 00 80 00
 (1756944002.219766)  can0  7E0   [8]  07 23 00 05 17 80 80 00
 (1756944002.238768)  can0  7E0   [8]  07 23 00 05 18 00 80 00
 (1756944002.257779)  can0  7E0   [8]  07 23 00 05 18 80 80 00
 (1756944002.276759)  can0  7E0   [8]  07 23 00 05 19 00 80 00
